Open On-Chip Debugger 0.11.0-dirty (2022-10-19-16:13)
Licensed under GNU GPL v2
For bug reports, read
	http://openocd.org/doc/doxygen/bugs.html
User : 13 3 options.c:63 configuration_output_handler(): debug_level: 3
User : 14 3 options.c:63 configuration_output_handler(): 
Debug: 15 4 options.c:244 add_default_dirs(): bindir=/usr/bin
Debug: 16 4 options.c:245 add_default_dirs(): pkgdatadir=/usr/share/openocd
Debug: 17 4 options.c:246 add_default_dirs(): exepath=/usr/bin
Debug: 18 4 options.c:247 add_default_dirs(): bin2data=../share/openocd
Debug: 19 4 configuration.c:42 add_script_search_dir(): adding /var/rootdirs/home/root/.config/openocd
Debug: 20 4 configuration.c:42 add_script_search_dir(): adding /var/rootdirs/home/root/.openocd
Debug: 21 4 configuration.c:42 add_script_search_dir(): adding /usr/bin/../share/openocd/site
Debug: 22 4 configuration.c:42 add_script_search_dir(): adding /usr/bin/../share/openocd/scripts
Debug: 23 4 configuration.c:97 find_file(): found /usr/arduino/extra/openocd_script-imx_gpio.cfg
Debug: 24 4 command.c:146 script_debug(): command - adapter driver imx_gpio
Debug: 26 4 command.c:146 script_debug(): command - imx_gpio_peripheral_base 0x30200000
Debug: 28 4 command.c:146 script_debug(): command - imx_gpio_speed_coeffs 500000 50
Debug: 30 4 command.c:146 script_debug(): command - imx_gpio_swd_nums 15 8
Debug: 32 4 command.c:146 script_debug(): command - imx_gpio_srst_num 10
Debug: 34 4 command.c:146 script_debug(): command - reset_config srst_only srst_push_pull
Debug: 36 4 command.c:146 script_debug(): command - transport select swd
Debug: 37 4 bitbang.c:388 bitbang_swd_init(): bitbang_swd_init
Debug: 38 4 configuration.c:97 find_file(): found /usr/bin/../share/openocd/scripts/target/stm32h7x_dual_bank.cfg
Debug: 39 5 configuration.c:97 find_file(): found /usr/bin/../share/openocd/scripts/target/stm32h7x.cfg
Debug: 40 5 configuration.c:97 find_file(): found /usr/bin/../share/openocd/scripts/target/swj-dp.tcl
Debug: 41 5 command.c:146 script_debug(): command - transport select
Debug: 42 5 configuration.c:97 find_file(): found /usr/bin/../share/openocd/scripts/mem_helper.tcl
Debug: 43 5 command.c:146 script_debug(): command - add_usage_text mrw address
Debug: 45 5 command.c:1115 help_add_command(): added 'mrw' help text
Debug: 46 5 command.c:146 script_debug(): command - add_help_text mrw Returns value of word in memory.
Debug: 48 5 command.c:1128 help_add_command(): added 'mrw' help text
Debug: 49 5 command.c:146 script_debug(): command - add_usage_text mrh address
Debug: 51 5 command.c:1115 help_add_command(): added 'mrh' help text
Debug: 52 5 command.c:146 script_debug(): command - add_help_text mrh Returns value of halfword in memory.
Debug: 54 5 command.c:1128 help_add_command(): added 'mrh' help text
Debug: 55 5 command.c:146 script_debug(): command - add_usage_text mrb address
Debug: 57 5 command.c:1115 help_add_command(): added 'mrb' help text
Debug: 58 5 command.c:146 script_debug(): command - add_help_text mrb Returns value of byte in memory.
Debug: 60 6 command.c:1128 help_add_command(): added 'mrb' help text
Debug: 61 6 command.c:146 script_debug(): command - add_usage_text mmw address setbits clearbits
Debug: 63 6 command.c:1115 help_add_command(): added 'mmw' help text
Debug: 64 6 command.c:146 script_debug(): command - add_help_text mmw Modify word in memory. new_val = (old_val & ~clearbits) | setbits;
Debug: 66 6 command.c:1128 help_add_command(): added 'mmw' help text
Debug: 67 6 command.c:146 script_debug(): command - transport select
Debug: 68 6 command.c:146 script_debug(): command - transport select
Debug: 69 6 command.c:146 script_debug(): command - transport select
Debug: 70 6 command.c:146 script_debug(): command - swd newdap stm32h7x cpu -irlen 4 -ircapture 0x1 -irmask 0xf -expected-id 0x6ba02477
Debug: 71 6 tcl.c:571 jim_newtap_cmd(): Creating New Tap, Chip: stm32h7x, Tap: cpu, Dotted: stm32h7x.cpu, 8 params
Debug: 72 6 core.c:1484 jtag_tap_init(): Created Tap: stm32h7x.cpu @ abs position 0, irlen 0, capture: 0x0 mask: 0x0
Debug: 73 6 command.c:146 script_debug(): command - dap create stm32h7x.dap -chain-position stm32h7x.cpu
Debug: 74 6 command.c:146 script_debug(): command - transport select
Debug: 75 6 command.c:146 script_debug(): command - transport select
Debug: 76 6 command.c:146 script_debug(): command - target create stm32h7x.ap2 mem_ap -dap stm32h7x.dap -ap-num 2
Debug: 77 6 command.c:146 script_debug(): command - target create stm32h7x.cpu0 cortex_m -endian little -dap stm32h7x.dap -ap-num 0
Debug: 78 7 command.c:375 register_command(): command 'rtt' is already registered in '<global>' context
Debug: 79 7 command.c:146 script_debug(): command - stm32h7x.cpu0 configure -work-area-phys 0x20000000 -work-area-size 0x10000 -work-area-backup 0
Debug: 80 7 target.c:2172 target_free_all_working_areas_restore(): freeing all working areas
Debug: 81 7 target.c:2172 target_free_all_working_areas_restore(): freeing all working areas
Debug: 82 7 target.c:2172 target_free_all_working_areas_restore(): freeing all working areas
Debug: 83 7 command.c:146 script_debug(): command - flash bank stm32h7x.bank1.cpu0 stm32h7x 0x08000000 0 0 0 stm32h7x.cpu0
Debug: 85 7 tcl.c:1319 handle_flash_bank_command(): 'stm32h7x' driver usage field missing
Debug: 86 7 command.c:146 script_debug(): command - flash bank stm32h7x.bank2.cpu0 stm32h7x 0x08100000 0 0 0 stm32h7x.cpu0
Debug: 88 7 command.c:375 register_command(): command 'stm32h7x' is already registered in '<global>' context
Debug: 89 7 command.c:375 register_command(): command 'lock' is already registered in 'stm32h7x' context
Debug: 90 7 command.c:375 register_command(): command 'unlock' is already registered in 'stm32h7x' context
Debug: 91 7 command.c:375 register_command(): command 'mass_erase' is already registered in 'stm32h7x' context
Debug: 92 7 command.c:375 register_command(): command 'option_read' is already registered in 'stm32h7x' context
Debug: 93 7 command.c:375 register_command(): command 'option_write' is already registered in 'stm32h7x' context
Debug: 94 7 tcl.c:1319 handle_flash_bank_command(): 'stm32h7x' driver usage field missing
Debug: 95 7 command.c:146 script_debug(): command - targets stm32h7x.cpu0
Debug: 97 7 command.c:146 script_debug(): command - adapter speed 1800
Debug: 99 7 core.c:1822 jtag_config_khz(): handle jtag khz
Debug: 100 7 core.c:1785 adapter_khz_to_speed(): convert khz to interface specific speed value
Debug: 101 7 core.c:1785 adapter_khz_to_speed(): convert khz to interface specific speed value
Debug: 102 7 command.c:146 script_debug(): command - adapter srst delay 100
Debug: 104 7 command.c:146 script_debug(): command - transport select
Debug: 105 7 command.c:146 script_debug(): command - reset_config srst_only srst_nogate
Debug: 107 7 command.c:146 script_debug(): command - transport select
Debug: 108 7 command.c:146 script_debug(): command - stm32h7x.cpu0 cortex_m reset_config sysresetreq
Debug: 110 7 command.c:146 script_debug(): command - stm32h7x.dap apcsw 0x08000000 0x08000000
Debug: 112 7 command.c:146 script_debug(): command - stm32h7x.cpu0 configure -event examine-end 
	# Enable D3 and D1 DBG clocks
	# DBGMCU_CR |= D3DBGCKEN | D1DBGCKEN
	stm32h7x_dbgmcu_mmw 0x004 0x00600000 0

	# Enable debug during low power modes (uses more power)
	# DBGMCU_CR |= DBG_STANDBY | DBG_STOP | DBG_SLEEP D1 Domain
	stm32h7x_dbgmcu_mmw 0x004 0x00000007 0
	# DBGMCU_CR |= DBG_STANDBY | DBG_STOP | DBG_SLEEP D2 Domain
	stm32h7x_dbgmcu_mmw 0x004 0x00000038 0

	# Stop watchdog counters during halt
	# DBGMCU_APB3FZ1 |= WWDG1
	stm32h7x_dbgmcu_mmw 0x034 0x00000040 0
	# DBGMCU_APB1LFZ1 |= WWDG2
	stm32h7x_dbgmcu_mmw 0x03C 0x00000800 0
	# DBGMCU_APB4FZ1 |= WDGLSD1 | WDGLSD2
	stm32h7x_dbgmcu_mmw 0x054 0x000C0000 0

Debug: 113 8 command.c:146 script_debug(): command - stm32h7x.cpu0 configure -event trace-config 
	# Set TRACECLKEN; TRACE_MODE is set to async; when using sync
	# change this value accordingly to configure trace pins
	# assignment
	stm32h7x_dbgmcu_mmw 0x004 0x00100000 0

Debug: 114 8 command.c:146 script_debug(): command - stm32h7x.cpu0 configure -event reset-init 
	# Clock after reset is HSI at 64 MHz, no need of PLL
	adapter speed 4000

Debug: 115 8 command.c:146 script_debug(): command - init
Debug: 117 8 command.c:146 script_debug(): command - target init
Debug: 119 8 command.c:146 script_debug(): command - target names
Debug: 120 8 command.c:146 script_debug(): command - stm32h7x.ap2 cget -event gdb-flash-erase-start
Debug: 121 8 command.c:146 script_debug(): command - stm32h7x.ap2 configure -event gdb-flash-erase-start reset init
Debug: 122 8 command.c:146 script_debug(): command - stm32h7x.ap2 cget -event gdb-flash-write-end
Debug: 123 8 command.c:146 script_debug(): command - stm32h7x.ap2 configure -event gdb-flash-write-end reset halt
Debug: 124 8 command.c:146 script_debug(): command - stm32h7x.ap2 cget -event gdb-attach
Debug: 125 8 command.c:146 script_debug(): command - stm32h7x.ap2 configure -event gdb-attach halt 1000
Debug: 126 8 command.c:146 script_debug(): command - stm32h7x.cpu0 cget -event gdb-flash-erase-start
Debug: 127 8 command.c:146 script_debug(): command - stm32h7x.cpu0 configure -event gdb-flash-erase-start reset init
Debug: 128 8 command.c:146 script_debug(): command - stm32h7x.cpu0 cget -event gdb-flash-write-end
Debug: 129 8 command.c:146 script_debug(): command - stm32h7x.cpu0 configure -event gdb-flash-write-end reset halt
Debug: 130 8 command.c:146 script_debug(): command - stm32h7x.cpu0 cget -event gdb-attach
Debug: 131 8 command.c:146 script_debug(): command - stm32h7x.cpu0 configure -event gdb-attach halt 1000
Debug: 132 8 target.c:1639 handle_target_init_command(): Initializing targets...
Debug: 133 8 mem_ap.c:63 mem_ap_init_target(): mem_ap_init_target
Debug: 134 8 semihosting_common.c:99 semihosting_common_init():  
Info : 135 9 imx_gpio.c:480 imx_gpio_init(): imx_gpio GPIO JTAG/SWD bitbang driver
Info : 136 9 imx_gpio.c:498 imx_gpio_init(): imx_gpio mmap: pagesize: 4096, regionsize: 131072
Debug: 137 9 imx_gpio.c:552 imx_gpio_init(): saved pinmux settings: tck 0 tms 0 tdi 0 tdo 0 trst 0 srst 1
Debug: 138 9 core.c:1785 adapter_khz_to_speed(): convert khz to interface specific speed value
Debug: 139 9 core.c:1789 adapter_khz_to_speed(): have interface set up
Debug: 140 9 core.c:1785 adapter_khz_to_speed(): convert khz to interface specific speed value
Debug: 141 9 core.c:1789 adapter_khz_to_speed(): have interface set up
Info : 142 9 core.c:1565 adapter_init(): clock speed 1805 kHz
Debug: 143 9 openocd.c:143 handle_init_command(): Debug Adapter init complete
Debug: 144 9 command.c:146 script_debug(): command - transport init
Debug: 146 9 transport.c:229 handle_transport_init(): handle_transport_init
Debug: 147 9 command.c:146 script_debug(): command - dap init
Debug: 149 9 arm_dap.c:106 dap_init_all(): Initializing all DAPs ...
Debug: 150 9 bitbang.c:426 bitbang_swd_switch_seq(): bitbang_swd_switch_seq
Debug: 151 9 bitbang.c:434 bitbang_swd_switch_seq(): JTAG-to-SWD
Debug: 152 9 bitbang.c:394 bitbang_swd_exchange(): bitbang_swd_exchange
Debug: 153 9 bitbang.c:457 bitbang_swd_read_reg(): bitbang_swd_read_reg
Debug: 154 9 bitbang.c:394 bitbang_swd_exchange(): bitbang_swd_exchange
Debug: 155 9 bitbang.c:394 bitbang_swd_exchange(): bitbang_swd_exchange
Debug: 156 9 bitbang.c:479 bitbang_swd_read_reg(): OK DP read reg 0 = 6ba02477
Debug: 157 9 bitbang.c:568 bitbang_swd_run_queue(): bitbang_swd_run_queue
Debug: 158 10 bitbang.c:394 bitbang_swd_exchange(): bitbang_swd_exchange
Debug: 159 10 bitbang.c:575 bitbang_swd_run_queue(): SWD queue return value: 00
Info : 160 10 adi_v5_swd.c:148 swd_connect(): SWD DPIDR 0x6ba02477
Debug: 161 10 bitbang.c:516 bitbang_swd_write_reg(): bitbang_swd_write_reg
Debug: 162 10 bitbang.c:394 bitbang_swd_exchange(): bitbang_swd_exchange
Debug: 163 10 bitbang.c:394 bitbang_swd_exchange(): bitbang_swd_exchange
Debug: 164 10 bitbang.c:394 bitbang_swd_exchange(): bitbang_swd_exchange
Debug: 165 10 bitbang.c:538 bitbang_swd_write_reg(): OK DP write reg 0 = 0000001e
Debug: 166 10 bitbang.c:568 bitbang_swd_run_queue(): bitbang_swd_run_queue
Debug: 167 10 bitbang.c:394 bitbang_swd_exchange(): bitbang_swd_exchange
Debug: 168 10 bitbang.c:575 bitbang_swd_run_queue(): SWD queue return value: 00
Debug: 169 10 arm_adi_v5.c:653 dap_dp_init(): stm32h7x.dap
Debug: 170 10 bitbang.c:516 bitbang_swd_write_reg(): bitbang_swd_write_reg
Debug: 171 10 bitbang.c:394 bitbang_swd_exchange(): bitbang_swd_exchange
Debug: 172 10 bitbang.c:394 bitbang_swd_exchange(): bitbang_swd_exchange
Debug: 173 10 bitbang.c:394 bitbang_swd_exchange(): bitbang_swd_exchange
Debug: 174 10 bitbang.c:538 bitbang_swd_write_reg(): OK DP write reg 8 = 00000000
Debug: 175 10 bitbang.c:516 bitbang_swd_write_reg(): bitbang_swd_write_reg
Debug: 176 10 bitbang.c:394 bitbang_swd_exchange(): bitbang_swd_exchange
Debug: 177 10 bitbang.c:394 bitbang_swd_exchange(): bitbang_swd_exchange
Debug: 178 10 bitbang.c:394 bitbang_swd_exchange(): bitbang_swd_exchange
Debug: 179 10 bitbang.c:538 bitbang_swd_write_reg(): OK DP write reg 4 = 50000020
Debug: 180 10 bitbang.c:457 bitbang_swd_read_reg(): bitbang_swd_read_reg
Debug: 181 10 bitbang.c:394 bitbang_swd_exchange(): bitbang_swd_exchange
Debug: 182 10 bitbang.c:394 bitbang_swd_exchange(): bitbang_swd_exchange
Debug: 183 10 bitbang.c:479 bitbang_swd_read_reg(): OK DP read reg 4 = f8000040
Debug: 184 10 bitbang.c:516 bitbang_swd_write_reg(): bitbang_swd_write_reg
Debug: 185 10 bitbang.c:394 bitbang_swd_exchange(): bitbang_swd_exchange
Debug: 186 10 bitbang.c:394 bitbang_swd_exchange(): bitbang_swd_exchange
Debug: 187 10 bitbang.c:394 bitbang_swd_exchange(): bitbang_swd_exchange
Debug: 188 10 bitbang.c:538 bitbang_swd_write_reg(): OK DP write reg 4 = 50000000
Debug: 189 10 arm_adi_v5.c:685 dap_dp_init(): DAP: wait CDBGPWRUPACK
Debug: 190 10 arm_adi_v5.h:506 dap_dp_poll_register(): DAP: poll 4, mask 0x20000000, value 0x20000000
Debug: 191 10 bitbang.c:457 bitbang_swd_read_reg(): bitbang_swd_read_reg
Debug: 192 10 bitbang.c:394 bitbang_swd_exchange(): bitbang_swd_exchange
Debug: 193 10 bitbang.c:394 bitbang_swd_exchange(): bitbang_swd_exchange
Debug: 194 10 bitbang.c:479 bitbang_swd_read_reg(): OK DP read reg 4 = f8000040
Debug: 195 10 bitbang.c:568 bitbang_swd_run_queue(): bitbang_swd_run_queue
Debug: 196 10 bitbang.c:394 bitbang_swd_exchange(): bitbang_swd_exchange
Debug: 197 11 bitbang.c:575 bitbang_swd_run_queue(): SWD queue return value: 00
Debug: 198 11 arm_adi_v5.c:693 dap_dp_init(): DAP: wait CSYSPWRUPACK
Debug: 199 11 arm_adi_v5.h:506 dap_dp_poll_register(): DAP: poll 4, mask 0x80000000, value 0x80000000
Debug: 200 11 bitbang.c:457 bitbang_swd_read_reg(): bitbang_swd_read_reg
Debug: 201 11 bitbang.c:394 bitbang_swd_exchange(): bitbang_swd_exchange
Debug: 202 11 bitbang.c:394 bitbang_swd_exchange(): bitbang_swd_exchange
Debug: 203 11 bitbang.c:479 bitbang_swd_read_reg(): OK DP read reg 4 = f8000040
Debug: 204 11 bitbang.c:568 bitbang_swd_run_queue(): bitbang_swd_run_queue
Debug: 205 11 bitbang.c:394 bitbang_swd_exchange(): bitbang_swd_exchange
Debug: 206 11 bitbang.c:575 bitbang_swd_run_queue(): SWD queue return value: 00
Debug: 207 11 bitbang.c:457 bitbang_swd_read_reg(): bitbang_swd_read_reg
Debug: 208 11 bitbang.c:394 bitbang_swd_exchange(): bitbang_swd_exchange
Debug: 209 11 bitbang.c:394 bitbang_swd_exchange(): bitbang_swd_exchange
Debug: 210 11 bitbang.c:479 bitbang_swd_read_reg(): OK DP read reg 4 = f8000040
Debug: 211 11 bitbang.c:516 bitbang_swd_write_reg(): bitbang_swd_write_reg
Debug: 212 11 bitbang.c:394 bitbang_swd_exchange(): bitbang_swd_exchange
Debug: 213 11 bitbang.c:394 bitbang_swd_exchange(): bitbang_swd_exchange
Debug: 214 11 bitbang.c:394 bitbang_swd_exchange(): bitbang_swd_exchange
Debug: 215 11 bitbang.c:538 bitbang_swd_write_reg(): OK DP write reg 4 = 50000001
Debug: 216 11 bitbang.c:457 bitbang_swd_read_reg(): bitbang_swd_read_reg
Debug: 217 11 bitbang.c:394 bitbang_swd_exchange(): bitbang_swd_exchange
Debug: 218 11 bitbang.c:394 bitbang_swd_exchange(): bitbang_swd_exchange
Debug: 219 11 bitbang.c:479 bitbang_swd_read_reg(): OK DP read reg 4 = f8000041
Debug: 220 11 bitbang.c:568 bitbang_swd_run_queue(): bitbang_swd_run_queue
Debug: 221 11 bitbang.c:394 bitbang_swd_exchange(): bitbang_swd_exchange
Debug: 222 11 bitbang.c:575 bitbang_swd_run_queue(): SWD queue return value: 00
Debug: 223 11 openocd.c:160 handle_init_command(): Examining targets...
Debug: 224 11 target.c:1825 target_call_event_callbacks(): target event 19 (examine-start) for core stm32h7x.ap2
Debug: 225 11 bitbang.c:516 bitbang_swd_write_reg(): bitbang_swd_write_reg
Debug: 226 11 bitbang.c:394 bitbang_swd_exchange(): bitbang_swd_exchange
Debug: 227 11 bitbang.c:394 bitbang_swd_exchange(): bitbang_swd_exchange
Debug: 228 11 bitbang.c:394 bitbang_swd_exchange(): bitbang_swd_exchange
Debug: 229 11 bitbang.c:538 bitbang_swd_write_reg(): OK DP write reg 8 = 02000000
Debug: 230 11 bitbang.c:516 bitbang_swd_write_reg(): bitbang_swd_write_reg
Debug: 231 11 bitbang.c:394 bitbang_swd_exchange(): bitbang_swd_exchange
Debug: 232 11 bitbang.c:394 bitbang_swd_exchange(): bitbang_swd_exchange
Debug: 233 11 bitbang.c:394 bitbang_swd_exchange(): bitbang_swd_exchange
Debug: 234 12 bitbang.c:538 bitbang_swd_write_reg(): OK AP write reg 0 = a2000020
Debug: 235 12 bitbang.c:394 bitbang_swd_exchange(): bitbang_swd_exchange
Debug: 236 12 bitbang.c:516 bitbang_swd_write_reg(): bitbang_swd_write_reg
Debug: 237 12 bitbang.c:394 bitbang_swd_exchange(): bitbang_swd_exchange
Debug: 238 12 bitbang.c:394 bitbang_swd_exchange(): bitbang_swd_exchange
Debug: 239 12 bitbang.c:394 bitbang_swd_exchange(): bitbang_swd_exchange
Debug: 240 12 bitbang.c:538 bitbang_swd_write_reg(): OK AP write reg 4 = 00000000
Debug: 241 12 bitbang.c:394 bitbang_swd_exchange(): bitbang_swd_exchange
Debug: 242 13 bitbang.c:457 bitbang_swd_read_reg(): bitbang_swd_read_reg
Debug: 243 13 bitbang.c:394 bitbang_swd_exchange(): bitbang_swd_exchange
Debug: 244 13 bitbang.c:394 bitbang_swd_exchange(): bitbang_swd_exchange
Debug: 245 13 bitbang.c:479 bitbang_swd_read_reg(): OK AP read reg 0 = 00030003
Debug: 246 13 bitbang.c:394 bitbang_swd_exchange(): bitbang_swd_exchange
Debug: 247 13 bitbang.c:457 bitbang_swd_read_reg(): bitbang_swd_read_reg
Debug: 248 13 bitbang.c:394 bitbang_swd_exchange(): bitbang_swd_exchange
Debug: 249 13 bitbang.c:394 bitbang_swd_exchange(): bitbang_swd_exchange
Debug: 250 13 bitbang.c:479 bitbang_swd_read_reg(): OK DP read reg C = 80000042
Debug: 251 13 bitbang.c:516 bitbang_swd_write_reg(): bitbang_swd_write_reg
Debug: 252 13 bitbang.c:394 bitbang_swd_exchange(): bitbang_swd_exchange
Debug: 253 13 bitbang.c:394 bitbang_swd_exchange(): bitbang_swd_exchange
Debug: 254 13 bitbang.c:394 bitbang_swd_exchange(): bitbang_swd_exchange
Debug: 255 14 bitbang.c:538 bitbang_swd_write_reg(): OK DP write reg 8 = 020000f0
Debug: 256 14 bitbang.c:457 bitbang_swd_read_reg(): bitbang_swd_read_reg
Debug: 257 14 bitbang.c:394 bitbang_swd_exchange(): bitbang_swd_exchange
Debug: 258 14 bitbang.c:394 bitbang_swd_exchange(): bitbang_swd_exchange
Debug: 259 14 bitbang.c:479 bitbang_swd_read_reg(): OK AP read reg 4 = 80000042
Debug: 260 14 bitbang.c:394 bitbang_swd_exchange(): bitbang_swd_exchange
Debug: 261 14 bitbang.c:457 bitbang_swd_read_reg(): bitbang_swd_read_reg
Debug: 262 14 bitbang.c:394 bitbang_swd_exchange(): bitbang_swd_exchange
Debug: 263 14 bitbang.c:394 bitbang_swd_exchange(): bitbang_swd_exchange
Debug: 264 14 bitbang.c:479 bitbang_swd_read_reg(): OK DP read reg C = 00000000
Debug: 265 14 bitbang.c:568 bitbang_swd_run_queue(): bitbang_swd_run_queue
Debug: 266 14 bitbang.c:394 bitbang_swd_exchange(): bitbang_swd_exchange
Debug: 267 14 bitbang.c:575 bitbang_swd_run_queue(): SWD queue return value: 00
Debug: 268 14 arm_adi_v5.c:792 mem_ap_init(): MEM_AP Packed Transfers: disabled
Debug: 269 14 arm_adi_v5.c:803 mem_ap_init(): MEM_AP CFG: large data 0, long address 0, big-endian 0
Debug: 270 14 target.c:1825 target_call_event_callbacks(): target event 21 (examine-end) for core stm32h7x.ap2
Debug: 271 14 target.c:1825 target_call_event_callbacks(): target event 19 (examine-start) for core stm32h7x.cpu0
Debug: 272 14 bitbang.c:516 bitbang_swd_write_reg(): bitbang_swd_write_reg
Debug: 273 14 bitbang.c:394 bitbang_swd_exchange(): bitbang_swd_exchange
Debug: 274 14 bitbang.c:394 bitbang_swd_exchange(): bitbang_swd_exchange
Debug: 275 14 bitbang.c:394 bitbang_swd_exchange(): bitbang_swd_exchange
Debug: 276 14 bitbang.c:538 bitbang_swd_write_reg(): OK DP write reg 8 = 00000000
Debug: 277 15 bitbang.c:516 bitbang_swd_write_reg(): bitbang_swd_write_reg
Debug: 278 15 bitbang.c:394 bitbang_swd_exchange(): bitbang_swd_exchange
Debug: 279 15 bitbang.c:394 bitbang_swd_exchange(): bitbang_swd_exchange
Debug: 280 15 bitbang.c:394 bitbang_swd_exchange(): bitbang_swd_exchange
Debug: 281 15 bitbang.c:538 bitbang_swd_write_reg(): OK AP write reg 0 = aa000020
Debug: 282 15 bitbang.c:394 bitbang_swd_exchange(): bitbang_swd_exchange
Debug: 283 15 bitbang.c:516 bitbang_swd_write_reg(): bitbang_swd_write_reg
Debug: 284 15 bitbang.c:394 bitbang_swd_exchange(): bitbang_swd_exchange
Debug: 285 15 bitbang.c:394 bitbang_swd_exchange(): bitbang_swd_exchange
Debug: 286 15 bitbang.c:394 bitbang_swd_exchange(): bitbang_swd_exchange
Debug: 287 15 bitbang.c:538 bitbang_swd_write_reg(): OK AP write reg 4 = 00000000
Debug: 288 15 bitbang.c:394 bitbang_swd_exchange(): bitbang_swd_exchange
Debug: 289 15 bitbang.c:457 bitbang_swd_read_reg(): bitbang_swd_read_reg
Debug: 290 15 bitbang.c:394 bitbang_swd_exchange(): bitbang_swd_exchange
Debug: 291 15 bitbang.c:394 bitbang_swd_exchange(): bitbang_swd_exchange
Debug: 292 15 bitbang.c:479 bitbang_swd_read_reg(): OK AP read reg 0 = 00000000
Debug: 293 15 bitbang.c:394 bitbang_swd_exchange(): bitbang_swd_exchange
Debug: 294 15 bitbang.c:457 bitbang_swd_read_reg(): bitbang_swd_read_reg
Debug: 295 15 bitbang.c:394 bitbang_swd_exchange(): bitbang_swd_exchange
Debug: 296 15 bitbang.c:394 bitbang_swd_exchange(): bitbang_swd_exchange
Debug: 297 15 bitbang.c:479 bitbang_swd_read_reg(): OK DP read reg C = 0a800060
Debug: 298 15 bitbang.c:516 bitbang_swd_write_reg(): bitbang_swd_write_reg
Debug: 299 15 bitbang.c:394 bitbang_swd_exchange(): bitbang_swd_exchange
Debug: 300 15 bitbang.c:394 bitbang_swd_exchange(): bitbang_swd_exchange
Debug: 301 15 bitbang.c:394 bitbang_swd_exchange(): bitbang_swd_exchange
Debug: 302 15 bitbang.c:538 bitbang_swd_write_reg(): OK DP write reg 8 = 000000f0
Debug: 303 15 bitbang.c:457 bitbang_swd_read_reg(): bitbang_swd_read_reg
Debug: 304 15 bitbang.c:394 bitbang_swd_exchange(): bitbang_swd_exchange
Debug: 305 15 bitbang.c:394 bitbang_swd_exchange(): bitbang_swd_exchange
Debug: 306 15 bitbang.c:479 bitbang_swd_read_reg(): OK AP read reg 4 = 0a800060
Debug: 307 15 bitbang.c:394 bitbang_swd_exchange(): bitbang_swd_exchange
Debug: 308 15 bitbang.c:457 bitbang_swd_read_reg(): bitbang_swd_read_reg
Debug: 309 15 bitbang.c:394 bitbang_swd_exchange(): bitbang_swd_exchange
Debug: 310 15 bitbang.c:394 bitbang_swd_exchange(): bitbang_swd_exchange
Debug: 311 16 bitbang.c:479 bitbang_swd_read_reg(): OK DP read reg C = 00000000
Debug: 312 16 bitbang.c:568 bitbang_swd_run_queue(): bitbang_swd_run_queue
Debug: 313 16 bitbang.c:394 bitbang_swd_exchange(): bitbang_swd_exchange
Debug: 314 16 bitbang.c:575 bitbang_swd_run_queue(): SWD queue return value: 00
Debug: 315 16 arm_adi_v5.c:792 mem_ap_init(): MEM_AP Packed Transfers: enabled
Debug: 316 16 arm_adi_v5.c:803 mem_ap_init(): MEM_AP CFG: large data 0, long address 0, big-endian 0
Debug: 317 16 bitbang.c:516 bitbang_swd_write_reg(): bitbang_swd_write_reg
Debug: 318 16 bitbang.c:394 bitbang_swd_exchange(): bitbang_swd_exchange
Debug: 319 16 bitbang.c:394 bitbang_swd_exchange(): bitbang_swd_exchange
Debug: 320 16 bitbang.c:394 bitbang_swd_exchange(): bitbang_swd_exchange
Debug: 321 16 bitbang.c:538 bitbang_swd_write_reg(): OK DP write reg 8 = 00000000
Debug: 322 16 bitbang.c:516 bitbang_swd_write_reg(): bitbang_swd_write_reg
Debug: 323 16 bitbang.c:394 bitbang_swd_exchange(): bitbang_swd_exchange
Debug: 324 16 bitbang.c:394 bitbang_swd_exchange(): bitbang_swd_exchange
Debug: 325 16 bitbang.c:394 bitbang_swd_exchange(): bitbang_swd_exchange
Debug: 326 16 bitbang.c:538 bitbang_swd_write_reg(): OK AP write reg 0 = aa000022
Debug: 327 16 bitbang.c:394 bitbang_swd_exchange(): bitbang_swd_exchange
Debug: 328 16 bitbang.c:516 bitbang_swd_write_reg(): bitbang_swd_write_reg
Debug: 329 16 bitbang.c:394 bitbang_swd_exchange(): bitbang_swd_exchange
Debug: 330 16 bitbang.c:394 bitbang_swd_exchange(): bitbang_swd_exchange
Debug: 331 16 bitbang.c:394 bitbang_swd_exchange(): bitbang_swd_exchange
Debug: 332 16 bitbang.c:538 bitbang_swd_write_reg(): OK AP write reg 4 = e000ed00
Debug: 333 16 bitbang.c:394 bitbang_swd_exchange(): bitbang_swd_exchange
Debug: 334 16 bitbang.c:457 bitbang_swd_read_reg(): bitbang_swd_read_reg
Debug: 335 16 bitbang.c:394 bitbang_swd_exchange(): bitbang_swd_exchange
Debug: 336 16 bitbang.c:394 bitbang_swd_exchange(): bitbang_swd_exchange
Debug: 337 16 bitbang.c:479 bitbang_swd_read_reg(): OK AP read reg C = 00000000
Debug: 338 16 bitbang.c:394 bitbang_swd_exchange(): bitbang_swd_exchange
Debug: 339 16 bitbang.c:457 bitbang_swd_read_reg(): bitbang_swd_read_reg
Debug: 340 16 bitbang.c:394 bitbang_swd_exchange(): bitbang_swd_exchange
Debug: 341 16 bitbang.c:394 bitbang_swd_exchange(): bitbang_swd_exchange
Debug: 342 16 bitbang.c:479 bitbang_swd_read_reg(): OK DP read reg C = 411fc271
Debug: 343 16 bitbang.c:568 bitbang_swd_run_queue(): bitbang_swd_run_queue
Debug: 344 16 bitbang.c:394 bitbang_swd_exchange(): bitbang_swd_exchange
Debug: 345 16 bitbang.c:575 bitbang_swd_run_queue(): SWD queue return value: 00
Debug: 346 17 target.c:2587 target_read_u32(): address: 0xe000ed00, value: 0x411fc271
Debug: 347 17 cortex_m.c:2000 cortex_m_examine(): Cortex-M7 r1p1 processor detected
Debug: 348 17 cortex_m.c:2012 cortex_m_examine(): cpuid: 0x411fc271
Debug: 349 17 bitbang.c:516 bitbang_swd_write_reg(): bitbang_swd_write_reg
Debug: 350 17 bitbang.c:394 bitbang_swd_exchange(): bitbang_swd_exchange
Debug: 351 17 bitbang.c:394 bitbang_swd_exchange(): bitbang_swd_exchange
Debug: 352 17 bitbang.c:394 bitbang_swd_exchange(): bitbang_swd_exchange
Debug: 353 17 bitbang.c:538 bitbang_swd_write_reg(): OK AP write reg 4 = e000ef40
Debug: 354 17 bitbang.c:394 bitbang_swd_exchange(): bitbang_swd_exchange
Debug: 355 17 bitbang.c:457 bitbang_swd_read_reg(): bitbang_swd_read_reg
Debug: 356 17 bitbang.c:394 bitbang_swd_exchange(): bitbang_swd_exchange
Debug: 357 17 bitbang.c:394 bitbang_swd_exchange(): bitbang_swd_exchange
Debug: 358 17 bitbang.c:479 bitbang_swd_read_reg(): OK AP read reg C = 411fc271
Debug: 359 17 bitbang.c:394 bitbang_swd_exchange(): bitbang_swd_exchange
Debug: 360 17 bitbang.c:457 bitbang_swd_read_reg(): bitbang_swd_read_reg
Debug: 361 17 bitbang.c:394 bitbang_swd_exchange(): bitbang_swd_exchange
Debug: 362 17 bitbang.c:394 bitbang_swd_exchange(): bitbang_swd_exchange
Debug: 363 17 bitbang.c:479 bitbang_swd_read_reg(): OK DP read reg C = 10110221
Debug: 364 17 bitbang.c:568 bitbang_swd_run_queue(): bitbang_swd_run_queue
Debug: 365 17 bitbang.c:394 bitbang_swd_exchange(): bitbang_swd_exchange
Debug: 366 17 bitbang.c:575 bitbang_swd_run_queue(): SWD queue return value: 00
Debug: 367 17 target.c:2587 target_read_u32(): address: 0xe000ef40, value: 0x10110221
Debug: 368 17 bitbang.c:457 bitbang_swd_read_reg(): bitbang_swd_read_reg
Debug: 369 17 bitbang.c:394 bitbang_swd_exchange(): bitbang_swd_exchange
Debug: 370 17 bitbang.c:394 bitbang_swd_exchange(): bitbang_swd_exchange
Debug: 371 17 bitbang.c:479 bitbang_swd_read_reg(): OK AP read reg C = 10110221
Debug: 372 17 bitbang.c:394 bitbang_swd_exchange(): bitbang_swd_exchange
Debug: 373 17 bitbang.c:457 bitbang_swd_read_reg(): bitbang_swd_read_reg
Debug: 374 17 bitbang.c:394 bitbang_swd_exchange(): bitbang_swd_exchange
Debug: 375 17 bitbang.c:394 bitbang_swd_exchange(): bitbang_swd_exchange
Debug: 376 17 bitbang.c:479 bitbang_swd_read_reg(): OK DP read reg C = 12000011
Debug: 377 17 bitbang.c:568 bitbang_swd_run_queue(): bitbang_swd_run_queue
Debug: 378 17 bitbang.c:394 bitbang_swd_exchange(): bitbang_swd_exchange
Debug: 379 17 bitbang.c:575 bitbang_swd_run_queue(): SWD queue return value: 00
Debug: 380 17 target.c:2587 target_read_u32(): address: 0xe000ef44, value: 0x12000011
Debug: 381 17 cortex_m.c:2035 cortex_m_examine(): Cortex-M7 floating point feature FPv5_DP found
Debug: 382 17 bitbang.c:516 bitbang_swd_write_reg(): bitbang_swd_write_reg
Debug: 383 17 bitbang.c:394 bitbang_swd_exchange(): bitbang_swd_exchange
Debug: 384 17 bitbang.c:394 bitbang_swd_exchange(): bitbang_swd_exchange
Debug: 385 17 bitbang.c:394 bitbang_swd_exchange(): bitbang_swd_exchange
Debug: 386 18 bitbang.c:538 bitbang_swd_write_reg(): OK AP write reg 4 = e000edf0
Debug: 387 18 bitbang.c:394 bitbang_swd_exchange(): bitbang_swd_exchange
Debug: 388 18 bitbang.c:457 bitbang_swd_read_reg(): bitbang_swd_read_reg
Debug: 389 18 bitbang.c:394 bitbang_swd_exchange(): bitbang_swd_exchange
Debug: 390 18 bitbang.c:394 bitbang_swd_exchange(): bitbang_swd_exchange
Debug: 391 18 bitbang.c:479 bitbang_swd_read_reg(): OK AP read reg C = 12000011
Debug: 392 18 bitbang.c:394 bitbang_swd_exchange(): bitbang_swd_exchange
Debug: 393 18 bitbang.c:457 bitbang_swd_read_reg(): bitbang_swd_read_reg
Debug: 394 18 bitbang.c:394 bitbang_swd_exchange(): bitbang_swd_exchange
Debug: 395 18 bitbang.c:394 bitbang_swd_exchange(): bitbang_swd_exchange
Debug: 396 18 bitbang.c:479 bitbang_swd_read_reg(): OK DP read reg C = 00030003
Debug: 397 18 bitbang.c:568 bitbang_swd_run_queue(): bitbang_swd_run_queue
Debug: 398 18 bitbang.c:394 bitbang_swd_exchange(): bitbang_swd_exchange
Debug: 399 18 bitbang.c:575 bitbang_swd_run_queue(): SWD queue return value: 00
Debug: 400 18 target.c:2587 target_read_u32(): address: 0xe000edf0, value: 0x00030003
Debug: 401 18 target.c:2675 target_write_u32(): address: 0xe000edfc, value: 0x01000000
Debug: 402 18 bitbang.c:516 bitbang_swd_write_reg(): bitbang_swd_write_reg
Debug: 403 18 bitbang.c:394 bitbang_swd_exchange(): bitbang_swd_exchange
Debug: 404 18 bitbang.c:394 bitbang_swd_exchange(): bitbang_swd_exchange
Debug: 405 18 bitbang.c:394 bitbang_swd_exchange(): bitbang_swd_exchange
Debug: 406 18 bitbang.c:538 bitbang_swd_write_reg(): OK AP write reg 4 = e000edfc
Debug: 407 18 bitbang.c:394 bitbang_swd_exchange(): bitbang_swd_exchange
Debug: 408 18 bitbang.c:516 bitbang_swd_write_reg(): bitbang_swd_write_reg
Debug: 409 18 bitbang.c:394 bitbang_swd_exchange(): bitbang_swd_exchange
Debug: 410 18 bitbang.c:394 bitbang_swd_exchange(): bitbang_swd_exchange
Debug: 411 18 bitbang.c:394 bitbang_swd_exchange(): bitbang_swd_exchange
Debug: 412 18 bitbang.c:538 bitbang_swd_write_reg(): OK AP write reg C = 01000000
Debug: 413 18 bitbang.c:394 bitbang_swd_exchange(): bitbang_swd_exchange
Debug: 414 18 bitbang.c:568 bitbang_swd_run_queue(): bitbang_swd_run_queue
Debug: 415 18 bitbang.c:394 bitbang_swd_exchange(): bitbang_swd_exchange
Debug: 416 18 bitbang.c:575 bitbang_swd_run_queue(): SWD queue return value: 00
Debug: 417 18 bitbang.c:516 bitbang_swd_write_reg(): bitbang_swd_write_reg
Debug: 418 18 bitbang.c:394 bitbang_swd_exchange(): bitbang_swd_exchange
Debug: 419 18 bitbang.c:394 bitbang_swd_exchange(): bitbang_swd_exchange
Debug: 420 18 bitbang.c:394 bitbang_swd_exchange(): bitbang_swd_exchange
Debug: 421 19 bitbang.c:538 bitbang_swd_write_reg(): OK AP write reg 4 = e0002000
Debug: 422 19 bitbang.c:394 bitbang_swd_exchange(): bitbang_swd_exchange
Debug: 423 19 bitbang.c:457 bitbang_swd_read_reg(): bitbang_swd_read_reg
Debug: 424 19 bitbang.c:394 bitbang_swd_exchange(): bitbang_swd_exchange
Debug: 425 19 bitbang.c:394 bitbang_swd_exchange(): bitbang_swd_exchange
Debug: 426 19 bitbang.c:479 bitbang_swd_read_reg(): OK AP read reg C = 00030003
Debug: 427 19 bitbang.c:394 bitbang_swd_exchange(): bitbang_swd_exchange
Debug: 428 19 bitbang.c:457 bitbang_swd_read_reg(): bitbang_swd_read_reg
Debug: 429 19 bitbang.c:394 bitbang_swd_exchange(): bitbang_swd_exchange
Debug: 430 19 bitbang.c:394 bitbang_swd_exchange(): bitbang_swd_exchange
Debug: 431 19 bitbang.c:479 bitbang_swd_read_reg(): OK DP read reg C = 10000081
Debug: 432 19 bitbang.c:568 bitbang_swd_run_queue(): bitbang_swd_run_queue
Debug: 433 19 bitbang.c:394 bitbang_swd_exchange(): bitbang_swd_exchange
Debug: 434 19 bitbang.c:575 bitbang_swd_run_queue(): SWD queue return value: 00
Debug: 435 19 target.c:2587 target_read_u32(): address: 0xe0002000, value: 0x10000081
Debug: 436 19 target.c:2675 target_write_u32(): address: 0xe0002008, value: 0x00000000
Debug: 437 19 bitbang.c:516 bitbang_swd_write_reg(): bitbang_swd_write_reg
Debug: 438 19 bitbang.c:394 bitbang_swd_exchange(): bitbang_swd_exchange
Debug: 439 19 bitbang.c:394 bitbang_swd_exchange(): bitbang_swd_exchange
Debug: 440 19 bitbang.c:394 bitbang_swd_exchange(): bitbang_swd_exchange
Debug: 441 19 bitbang.c:538 bitbang_swd_write_reg(): OK AP write reg 4 = e0002008
Debug: 442 19 bitbang.c:394 bitbang_swd_exchange(): bitbang_swd_exchange
Debug: 443 19 bitbang.c:516 bitbang_swd_write_reg(): bitbang_swd_write_reg
Debug: 444 19 bitbang.c:394 bitbang_swd_exchange(): bitbang_swd_exchange
Debug: 445 19 bitbang.c:394 bitbang_swd_exchange(): bitbang_swd_exchange
Debug: 446 19 bitbang.c:394 bitbang_swd_exchange(): bitbang_swd_exchange
Debug: 447 19 bitbang.c:538 bitbang_swd_write_reg(): OK AP write reg C = 00000000
Debug: 448 19 bitbang.c:394 bitbang_swd_exchange(): bitbang_swd_exchange
Debug: 449 19 bitbang.c:568 bitbang_swd_run_queue(): bitbang_swd_run_queue
Debug: 450 19 bitbang.c:394 bitbang_swd_exchange(): bitbang_swd_exchange
Debug: 451 19 bitbang.c:575 bitbang_swd_run_queue(): SWD queue return value: 00
Debug: 452 19 target.c:2675 target_write_u32(): address: 0xe000200c, value: 0x00000000
Debug: 453 19 bitbang.c:516 bitbang_swd_write_reg(): bitbang_swd_write_reg
Debug: 454 19 bitbang.c:394 bitbang_swd_exchange(): bitbang_swd_exchange
Debug: 455 19 bitbang.c:394 bitbang_swd_exchange(): bitbang_swd_exchange
Debug: 456 19 bitbang.c:394 bitbang_swd_exchange(): bitbang_swd_exchange
Debug: 457 19 bitbang.c:538 bitbang_swd_write_reg(): OK AP write reg C = 00000000
Debug: 458 19 bitbang.c:394 bitbang_swd_exchange(): bitbang_swd_exchange
Debug: 459 19 bitbang.c:568 bitbang_swd_run_queue(): bitbang_swd_run_queue
Debug: 460 20 bitbang.c:394 bitbang_swd_exchange(): bitbang_swd_exchange
Debug: 461 20 bitbang.c:575 bitbang_swd_run_queue(): SWD queue return value: 00
Debug: 462 20 target.c:2675 target_write_u32(): address: 0xe0002010, value: 0x00000000
Debug: 463 20 bitbang.c:516 bitbang_swd_write_reg(): bitbang_swd_write_reg
Debug: 464 20 bitbang.c:394 bitbang_swd_exchange(): bitbang_swd_exchange
Debug: 465 20 bitbang.c:394 bitbang_swd_exchange(): bitbang_swd_exchange
Debug: 466 20 bitbang.c:394 bitbang_swd_exchange(): bitbang_swd_exchange
Debug: 467 20 bitbang.c:538 bitbang_swd_write_reg(): OK AP write reg C = 00000000
Debug: 468 20 bitbang.c:394 bitbang_swd_exchange(): bitbang_swd_exchange
Debug: 469 20 bitbang.c:568 bitbang_swd_run_queue(): bitbang_swd_run_queue
Debug: 470 20 bitbang.c:394 bitbang_swd_exchange(): bitbang_swd_exchange
Debug: 471 20 bitbang.c:575 bitbang_swd_run_queue(): SWD queue return value: 00
Debug: 472 20 target.c:2675 target_write_u32(): address: 0xe0002014, value: 0x00000000
Debug: 473 20 bitbang.c:516 bitbang_swd_write_reg(): bitbang_swd_write_reg
Debug: 474 20 bitbang.c:394 bitbang_swd_exchange(): bitbang_swd_exchange
Debug: 475 20 bitbang.c:394 bitbang_swd_exchange(): bitbang_swd_exchange
Debug: 476 20 bitbang.c:394 bitbang_swd_exchange(): bitbang_swd_exchange
Debug: 477 20 bitbang.c:538 bitbang_swd_write_reg(): OK AP write reg C = 00000000
Debug: 478 20 bitbang.c:394 bitbang_swd_exchange(): bitbang_swd_exchange
Debug: 479 20 bitbang.c:568 bitbang_swd_run_queue(): bitbang_swd_run_queue
Debug: 480 20 bitbang.c:394 bitbang_swd_exchange(): bitbang_swd_exchange
Debug: 481 20 bitbang.c:575 bitbang_swd_run_queue(): SWD queue return value: 00
Debug: 482 20 target.c:2675 target_write_u32(): address: 0xe0002018, value: 0x00000000
Debug: 483 20 bitbang.c:516 bitbang_swd_write_reg(): bitbang_swd_write_reg
Debug: 484 20 bitbang.c:394 bitbang_swd_exchange(): bitbang_swd_exchange
Debug: 485 20 bitbang.c:394 bitbang_swd_exchange(): bitbang_swd_exchange
Debug: 486 20 bitbang.c:394 bitbang_swd_exchange(): bitbang_swd_exchange
Debug: 487 20 bitbang.c:538 bitbang_swd_write_reg(): OK AP write reg C = 00000000
Debug: 488 20 bitbang.c:394 bitbang_swd_exchange(): bitbang_swd_exchange
Debug: 489 20 bitbang.c:568 bitbang_swd_run_queue(): bitbang_swd_run_queue
Debug: 490 20 bitbang.c:394 bitbang_swd_exchange(): bitbang_swd_exchange
Debug: 491 20 bitbang.c:575 bitbang_swd_run_queue(): SWD queue return value: 00
Debug: 492 20 target.c:2675 target_write_u32(): address: 0xe000201c, value: 0x00000000
Debug: 493 20 bitbang.c:516 bitbang_swd_write_reg(): bitbang_swd_write_reg
Debug: 494 20 bitbang.c:394 bitbang_swd_exchange(): bitbang_swd_exchange
Debug: 495 20 bitbang.c:394 bitbang_swd_exchange(): bitbang_swd_exchange
Debug: 496 20 bitbang.c:394 bitbang_swd_exchange(): bitbang_swd_exchange
Debug: 497 20 bitbang.c:538 bitbang_swd_write_reg(): OK AP write reg C = 00000000
Debug: 498 20 bitbang.c:394 bitbang_swd_exchange(): bitbang_swd_exchange
Debug: 499 20 bitbang.c:568 bitbang_swd_run_queue(): bitbang_swd_run_queue
Debug: 500 20 bitbang.c:394 bitbang_swd_exchange(): bitbang_swd_exchange
Debug: 501 20 bitbang.c:575 bitbang_swd_run_queue(): SWD queue return value: 00
Debug: 502 20 target.c:2675 target_write_u32(): address: 0xe0002020, value: 0x00000000
Debug: 503 20 bitbang.c:516 bitbang_swd_write_reg(): bitbang_swd_write_reg
Debug: 504 20 bitbang.c:394 bitbang_swd_exchange(): bitbang_swd_exchange
Debug: 505 20 bitbang.c:394 bitbang_swd_exchange(): bitbang_swd_exchange
Debug: 506 21 bitbang.c:394 bitbang_swd_exchange(): bitbang_swd_exchange
Debug: 507 21 bitbang.c:538 bitbang_swd_write_reg(): OK AP write reg C = 00000000
Debug: 508 21 bitbang.c:394 bitbang_swd_exchange(): bitbang_swd_exchange
Debug: 509 21 bitbang.c:568 bitbang_swd_run_queue(): bitbang_swd_run_queue
Debug: 510 21 bitbang.c:394 bitbang_swd_exchange(): bitbang_swd_exchange
Debug: 511 21 bitbang.c:575 bitbang_swd_run_queue(): SWD queue return value: 00
Debug: 512 21 target.c:2675 target_write_u32(): address: 0xe0002024, value: 0x00000000
Debug: 513 21 bitbang.c:516 bitbang_swd_write_reg(): bitbang_swd_write_reg
Debug: 514 21 bitbang.c:394 bitbang_swd_exchange(): bitbang_swd_exchange
Debug: 515 21 bitbang.c:394 bitbang_swd_exchange(): bitbang_swd_exchange
Debug: 516 21 bitbang.c:394 bitbang_swd_exchange(): bitbang_swd_exchange
Debug: 517 21 bitbang.c:538 bitbang_swd_write_reg(): OK AP write reg C = 00000000
Debug: 518 21 bitbang.c:394 bitbang_swd_exchange(): bitbang_swd_exchange
Debug: 519 21 bitbang.c:568 bitbang_swd_run_queue(): bitbang_swd_run_queue
Debug: 520 21 bitbang.c:394 bitbang_swd_exchange(): bitbang_swd_exchange
Debug: 521 21 bitbang.c:575 bitbang_swd_run_queue(): SWD queue return value: 00
Debug: 522 21 cortex_m.c:2113 cortex_m_examine(): FPB fpcr 0x10000081, numcode 8, numlit 0
Debug: 523 21 bitbang.c:516 bitbang_swd_write_reg(): bitbang_swd_write_reg
Debug: 524 21 bitbang.c:394 bitbang_swd_exchange(): bitbang_swd_exchange
Debug: 525 21 bitbang.c:394 bitbang_swd_exchange(): bitbang_swd_exchange
Debug: 526 21 bitbang.c:394 bitbang_swd_exchange(): bitbang_swd_exchange
Debug: 527 21 bitbang.c:538 bitbang_swd_write_reg(): OK AP write reg 4 = e0001000
Debug: 528 21 bitbang.c:394 bitbang_swd_exchange(): bitbang_swd_exchange
Debug: 529 21 bitbang.c:457 bitbang_swd_read_reg(): bitbang_swd_read_reg
Debug: 530 21 bitbang.c:394 bitbang_swd_exchange(): bitbang_swd_exchange
Debug: 531 21 bitbang.c:394 bitbang_swd_exchange(): bitbang_swd_exchange
Debug: 532 21 bitbang.c:479 bitbang_swd_read_reg(): OK AP read reg C = 10000081
Debug: 533 21 bitbang.c:394 bitbang_swd_exchange(): bitbang_swd_exchange
Debug: 534 21 bitbang.c:457 bitbang_swd_read_reg(): bitbang_swd_read_reg
Debug: 535 21 bitbang.c:394 bitbang_swd_exchange(): bitbang_swd_exchange
Debug: 536 21 bitbang.c:394 bitbang_swd_exchange(): bitbang_swd_exchange
Debug: 537 21 bitbang.c:479 bitbang_swd_read_reg(): OK DP read reg C = 40000000
Debug: 538 21 bitbang.c:568 bitbang_swd_run_queue(): bitbang_swd_run_queue
Debug: 539 21 bitbang.c:394 bitbang_swd_exchange(): bitbang_swd_exchange
Debug: 540 21 bitbang.c:575 bitbang_swd_run_queue(): SWD queue return value: 00
Debug: 541 21 target.c:2587 target_read_u32(): address: 0xe0001000, value: 0x40000000
Debug: 542 21 cortex_m.c:1830 cortex_m_dwt_setup(): DWT_CTRL: 0x40000000
Debug: 543 21 bitbang.c:516 bitbang_swd_write_reg(): bitbang_swd_write_reg
Debug: 544 21 bitbang.c:394 bitbang_swd_exchange(): bitbang_swd_exchange
Debug: 545 21 bitbang.c:394 bitbang_swd_exchange(): bitbang_swd_exchange
Debug: 546 21 bitbang.c:394 bitbang_swd_exchange(): bitbang_swd_exchange
Debug: 547 22 bitbang.c:538 bitbang_swd_write_reg(): OK AP write reg 4 = e0001fbc
Debug: 548 22 bitbang.c:394 bitbang_swd_exchange(): bitbang_swd_exchange
Debug: 549 22 bitbang.c:457 bitbang_swd_read_reg(): bitbang_swd_read_reg
Debug: 550 22 bitbang.c:394 bitbang_swd_exchange(): bitbang_swd_exchange
Debug: 551 22 bitbang.c:394 bitbang_swd_exchange(): bitbang_swd_exchange
Debug: 552 22 bitbang.c:479 bitbang_swd_read_reg(): OK AP read reg C = 40000000
Debug: 553 22 bitbang.c:394 bitbang_swd_exchange(): bitbang_swd_exchange
Debug: 554 22 bitbang.c:457 bitbang_swd_read_reg(): bitbang_swd_read_reg
Debug: 555 22 bitbang.c:394 bitbang_swd_exchange(): bitbang_swd_exchange
Debug: 556 22 bitbang.c:394 bitbang_swd_exchange(): bitbang_swd_exchange
Debug: 557 22 bitbang.c:479 bitbang_swd_read_reg(): OK DP read reg C = 00000000
Debug: 558 22 bitbang.c:568 bitbang_swd_run_queue(): bitbang_swd_run_queue
Debug: 559 22 bitbang.c:394 bitbang_swd_exchange(): bitbang_swd_exchange
Debug: 560 22 bitbang.c:575 bitbang_swd_run_queue(): SWD queue return value: 00
Debug: 561 22 target.c:2587 target_read_u32(): address: 0xe0001fbc, value: 0x00000000
Debug: 562 22 cortex_m.c:1837 cortex_m_dwt_setup(): DWT_DEVARCH: 0x0
Debug: 563 22 target.c:2675 target_write_u32(): address: 0xe0001028, value: 0x00000000
Debug: 564 22 bitbang.c:516 bitbang_swd_write_reg(): bitbang_swd_write_reg
Debug: 565 22 bitbang.c:394 bitbang_swd_exchange(): bitbang_swd_exchange
Debug: 566 22 bitbang.c:394 bitbang_swd_exchange(): bitbang_swd_exchange
Debug: 567 22 bitbang.c:394 bitbang_swd_exchange(): bitbang_swd_exchange
Debug: 568 22 bitbang.c:538 bitbang_swd_write_reg(): OK AP write reg 4 = e0001028
Debug: 569 22 bitbang.c:394 bitbang_swd_exchange(): bitbang_swd_exchange
Debug: 570 22 bitbang.c:516 bitbang_swd_write_reg(): bitbang_swd_write_reg
Debug: 571 22 bitbang.c:394 bitbang_swd_exchange(): bitbang_swd_exchange
Debug: 572 22 bitbang.c:394 bitbang_swd_exchange(): bitbang_swd_exchange
Debug: 573 22 bitbang.c:394 bitbang_swd_exchange(): bitbang_swd_exchange
Debug: 574 22 bitbang.c:538 bitbang_swd_write_reg(): OK AP write reg C = 00000000
Debug: 575 22 bitbang.c:394 bitbang_swd_exchange(): bitbang_swd_exchange
Debug: 576 22 bitbang.c:568 bitbang_swd_run_queue(): bitbang_swd_run_queue
Debug: 577 22 bitbang.c:394 bitbang_swd_exchange(): bitbang_swd_exchange
Debug: 578 22 bitbang.c:575 bitbang_swd_run_queue(): SWD queue return value: 00
Debug: 579 22 target.c:2675 target_write_u32(): address: 0xe0001038, value: 0x00000000
Debug: 580 22 bitbang.c:516 bitbang_swd_write_reg(): bitbang_swd_write_reg
Debug: 581 22 bitbang.c:394 bitbang_swd_exchange(): bitbang_swd_exchange
Debug: 582 22 bitbang.c:394 bitbang_swd_exchange(): bitbang_swd_exchange
Debug: 583 22 bitbang.c:394 bitbang_swd_exchange(): bitbang_swd_exchange
Debug: 584 23 bitbang.c:538 bitbang_swd_write_reg(): OK AP write reg 4 = e0001038
Debug: 585 23 bitbang.c:394 bitbang_swd_exchange(): bitbang_swd_exchange
Debug: 586 23 bitbang.c:516 bitbang_swd_write_reg(): bitbang_swd_write_reg
Debug: 587 23 bitbang.c:394 bitbang_swd_exchange(): bitbang_swd_exchange
Debug: 588 23 bitbang.c:394 bitbang_swd_exchange(): bitbang_swd_exchange
Debug: 589 23 bitbang.c:394 bitbang_swd_exchange(): bitbang_swd_exchange
Debug: 590 23 bitbang.c:538 bitbang_swd_write_reg(): OK AP write reg C = 00000000
Debug: 591 23 bitbang.c:394 bitbang_swd_exchange(): bitbang_swd_exchange
Debug: 592 23 bitbang.c:568 bitbang_swd_run_queue(): bitbang_swd_run_queue
Debug: 593 23 bitbang.c:394 bitbang_swd_exchange(): bitbang_swd_exchange
Debug: 594 23 bitbang.c:575 bitbang_swd_run_queue(): SWD queue return value: 00
Debug: 595 23 target.c:2675 target_write_u32(): address: 0xe0001048, value: 0x00000000
Debug: 596 23 bitbang.c:516 bitbang_swd_write_reg(): bitbang_swd_write_reg
Debug: 597 23 bitbang.c:394 bitbang_swd_exchange(): bitbang_swd_exchange
Debug: 598 23 bitbang.c:394 bitbang_swd_exchange(): bitbang_swd_exchange
Debug: 599 23 bitbang.c:394 bitbang_swd_exchange(): bitbang_swd_exchange
Debug: 600 23 bitbang.c:538 bitbang_swd_write_reg(): OK AP write reg 4 = e0001048
Debug: 601 23 bitbang.c:394 bitbang_swd_exchange(): bitbang_swd_exchange
Debug: 602 23 bitbang.c:516 bitbang_swd_write_reg(): bitbang_swd_write_reg
Debug: 603 23 bitbang.c:394 bitbang_swd_exchange(): bitbang_swd_exchange
Debug: 604 23 bitbang.c:394 bitbang_swd_exchange(): bitbang_swd_exchange
Debug: 605 23 bitbang.c:394 bitbang_swd_exchange(): bitbang_swd_exchange
Debug: 606 23 bitbang.c:538 bitbang_swd_write_reg(): OK AP write reg C = 00000000
Debug: 607 23 bitbang.c:394 bitbang_swd_exchange(): bitbang_swd_exchange
Debug: 608 23 bitbang.c:568 bitbang_swd_run_queue(): bitbang_swd_run_queue
Debug: 609 23 bitbang.c:394 bitbang_swd_exchange(): bitbang_swd_exchange
Debug: 610 23 bitbang.c:575 bitbang_swd_run_queue(): SWD queue return value: 00
Debug: 611 23 target.c:2675 target_write_u32(): address: 0xe0001058, value: 0x00000000
Debug: 612 23 bitbang.c:516 bitbang_swd_write_reg(): bitbang_swd_write_reg
Debug: 613 23 bitbang.c:394 bitbang_swd_exchange(): bitbang_swd_exchange
Debug: 614 23 bitbang.c:394 bitbang_swd_exchange(): bitbang_swd_exchange
Debug: 615 23 bitbang.c:394 bitbang_swd_exchange(): bitbang_swd_exchange
Debug: 616 23 bitbang.c:538 bitbang_swd_write_reg(): OK AP write reg 4 = e0001058
Debug: 617 23 bitbang.c:394 bitbang_swd_exchange(): bitbang_swd_exchange
Debug: 618 23 bitbang.c:516 bitbang_swd_write_reg(): bitbang_swd_write_reg
Debug: 619 23 bitbang.c:394 bitbang_swd_exchange(): bitbang_swd_exchange
Debug: 620 23 bitbang.c:394 bitbang_swd_exchange(): bitbang_swd_exchange
Debug: 621 23 bitbang.c:394 bitbang_swd_exchange(): bitbang_swd_exchange
Debug: 622 23 bitbang.c:538 bitbang_swd_write_reg(): OK AP write reg C = 00000000
Debug: 623 23 bitbang.c:394 bitbang_swd_exchange(): bitbang_swd_exchange
Debug: 624 23 bitbang.c:568 bitbang_swd_run_queue(): bitbang_swd_run_queue
Debug: 625 23 bitbang.c:394 bitbang_swd_exchange(): bitbang_swd_exchange
Debug: 626 24 bitbang.c:575 bitbang_swd_run_queue(): SWD queue return value: 00
Debug: 627 24 cortex_m.c:1884 cortex_m_dwt_setup(): DWT dwtcr 0x40000000, comp 4, watch/trigger
Info : 628 24 cortex_m.c:2123 cortex_m_examine(): stm32h7x.cpu0: hardware has 8 breakpoints, 4 watchpoints
Debug: 629 24 target.c:1825 target_call_event_callbacks(): target event 21 (examine-end) for core stm32h7x.cpu0
Debug: 630 24 target.c:4773 target_handle_event(): target(1): stm32h7x.cpu0 (cortex_m) event: 21 (examine-end) action: 
	# Enable D3 and D1 DBG clocks
	# DBGMCU_CR |= D3DBGCKEN | D1DBGCKEN
	stm32h7x_dbgmcu_mmw 0x004 0x00600000 0

	# Enable debug during low power modes (uses more power)
	# DBGMCU_CR |= DBG_STANDBY | DBG_STOP | DBG_SLEEP D1 Domain
	stm32h7x_dbgmcu_mmw 0x004 0x00000007 0
	# DBGMCU_CR |= DBG_STANDBY | DBG_STOP | DBG_SLEEP D2 Domain
	stm32h7x_dbgmcu_mmw 0x004 0x00000038 0

	# Stop watchdog counters during halt
	# DBGMCU_APB3FZ1 |= WWDG1
	stm32h7x_dbgmcu_mmw 0x034 0x00000040 0
	# DBGMCU_APB1LFZ1 |= WWDG2
	stm32h7x_dbgmcu_mmw 0x03C 0x00000800 0
	# DBGMCU_APB4FZ1 |= WDGLSD1 | WDGLSD2
	stm32h7x_dbgmcu_mmw 0x054 0x000C0000 0

Debug: 631 24 command.c:146 script_debug(): command - transport select
Debug: 632 24 command.c:146 script_debug(): command - target current
Debug: 633 24 command.c:146 script_debug(): command - stm32h7x.ap2 mem2array value 32 3759017988 1
Debug: 634 24 mem_ap.c:152 mem_ap_read_memory(): Reading memory at physical address 0xe00e1004; size 4; count 1
Debug: 635 24 bitbang.c:516 bitbang_swd_write_reg(): bitbang_swd_write_reg
Debug: 636 24 bitbang.c:394 bitbang_swd_exchange(): bitbang_swd_exchange
Debug: 637 24 bitbang.c:394 bitbang_swd_exchange(): bitbang_swd_exchange
Debug: 638 24 bitbang.c:394 bitbang_swd_exchange(): bitbang_swd_exchange
Debug: 639 24 bitbang.c:538 bitbang_swd_write_reg(): OK DP write reg 8 = 02000000
Debug: 640 24 bitbang.c:516 bitbang_swd_write_reg(): bitbang_swd_write_reg
Debug: 641 24 bitbang.c:394 bitbang_swd_exchange(): bitbang_swd_exchange
Debug: 642 24 bitbang.c:394 bitbang_swd_exchange(): bitbang_swd_exchange
Debug: 643 24 bitbang.c:394 bitbang_swd_exchange(): bitbang_swd_exchange
Debug: 644 24 bitbang.c:538 bitbang_swd_write_reg(): OK AP write reg 0 = a2000012
Debug: 645 24 bitbang.c:394 bitbang_swd_exchange(): bitbang_swd_exchange
Debug: 646 25 bitbang.c:516 bitbang_swd_write_reg(): bitbang_swd_write_reg
Debug: 647 25 bitbang.c:394 bitbang_swd_exchange(): bitbang_swd_exchange
Debug: 648 25 bitbang.c:394 bitbang_swd_exchange(): bitbang_swd_exchange
Debug: 649 25 bitbang.c:394 bitbang_swd_exchange(): bitbang_swd_exchange
Debug: 650 25 bitbang.c:538 bitbang_swd_write_reg(): OK AP write reg 4 = e00e1004
Debug: 651 25 bitbang.c:394 bitbang_swd_exchange(): bitbang_swd_exchange
Debug: 652 25 bitbang.c:457 bitbang_swd_read_reg(): bitbang_swd_read_reg
Debug: 653 25 bitbang.c:394 bitbang_swd_exchange(): bitbang_swd_exchange
Debug: 654 26 bitbang.c:394 bitbang_swd_exchange(): bitbang_swd_exchange
Debug: 655 26 bitbang.c:479 bitbang_swd_read_reg(): OK AP read reg C = 00000000
Debug: 656 26 bitbang.c:394 bitbang_swd_exchange(): bitbang_swd_exchange
Debug: 657 26 bitbang.c:457 bitbang_swd_read_reg(): bitbang_swd_read_reg
Debug: 658 26 bitbang.c:394 bitbang_swd_exchange(): bitbang_swd_exchange
Debug: 659 26 bitbang.c:394 bitbang_swd_exchange(): bitbang_swd_exchange
Debug: 660 26 bitbang.c:479 bitbang_swd_read_reg(): OK DP read reg C = 0060003f
Debug: 661 26 bitbang.c:568 bitbang_swd_run_queue(): bitbang_swd_run_queue
Debug: 662 26 bitbang.c:394 bitbang_swd_exchange(): bitbang_swd_exchange
Debug: 663 26 bitbang.c:575 bitbang_swd_run_queue(): SWD queue return value: 00
Debug: 664 26 command.c:146 script_debug(): command - stm32h7x.ap2 mww 3759017988 6291519
Debug: 665 26 bitbang.c:516 bitbang_swd_write_reg(): bitbang_swd_write_reg
Debug: 666 26 bitbang.c:394 bitbang_swd_exchange(): bitbang_swd_exchange
Debug: 667 26 bitbang.c:394 bitbang_swd_exchange(): bitbang_swd_exchange
Debug: 668 26 bitbang.c:394 bitbang_swd_exchange(): bitbang_swd_exchange
Debug: 669 27 bitbang.c:538 bitbang_swd_write_reg(): OK DP write reg 8 = 00000000
Debug: 670 27 bitbang.c:516 bitbang_swd_write_reg(): bitbang_swd_write_reg
Debug: 671 27 bitbang.c:394 bitbang_swd_exchange(): bitbang_swd_exchange
Debug: 672 27 bitbang.c:394 bitbang_swd_exchange(): bitbang_swd_exchange
Debug: 673 27 bitbang.c:394 bitbang_swd_exchange(): bitbang_swd_exchange
Debug: 674 27 bitbang.c:538 bitbang_swd_write_reg(): OK AP write reg 4 = e000edf0
Debug: 675 27 bitbang.c:394 bitbang_swd_exchange(): bitbang_swd_exchange
Debug: 676 27 bitbang.c:516 bitbang_swd_write_reg(): bitbang_swd_write_reg
Debug: 677 27 bitbang.c:394 bitbang_swd_exchange(): bitbang_swd_exchange
Debug: 678 27 bitbang.c:394 bitbang_swd_exchange(): bitbang_swd_exchange
Debug: 679 27 bitbang.c:394 bitbang_swd_exchange(): bitbang_swd_exchange
Debug: 680 27 bitbang.c:538 bitbang_swd_write_reg(): OK DP write reg 8 = 00000010
Debug: 681 27 bitbang.c:457 bitbang_swd_read_reg(): bitbang_swd_read_reg
Debug: 682 27 bitbang.c:394 bitbang_swd_exchange(): bitbang_swd_exchange
Debug: 683 27 bitbang.c:394 bitbang_swd_exchange(): bitbang_swd_exchange
Debug: 684 27 bitbang.c:479 bitbang_swd_read_reg(): OK AP read reg 0 = 0060003f
Debug: 685 27 bitbang.c:394 bitbang_swd_exchange(): bitbang_swd_exchange
Debug: 686 27 bitbang.c:457 bitbang_swd_read_reg(): bitbang_swd_read_reg
Debug: 687 27 bitbang.c:394 bitbang_swd_exchange(): bitbang_swd_exchange
Debug: 688 27 bitbang.c:394 bitbang_swd_exchange(): bitbang_swd_exchange
Debug: 689 27 bitbang.c:479 bitbang_swd_read_reg(): OK DP read reg C = 00030003
Debug: 690 27 bitbang.c:568 bitbang_swd_run_queue(): bitbang_swd_run_queue
Debug: 691 27 bitbang.c:394 bitbang_swd_exchange(): bitbang_swd_exchange
Debug: 692 27 bitbang.c:575 bitbang_swd_run_queue(): SWD queue return value: 00
Debug: 694 27 mem_ap.c:167 mem_ap_write_memory(): Writing memory at physical address 0xe00e1004; size 4; count 1
Debug: 695 27 bitbang.c:516 bitbang_swd_write_reg(): bitbang_swd_write_reg
Debug: 696 27 bitbang.c:394 bitbang_swd_exchange(): bitbang_swd_exchange
Debug: 697 28 bitbang.c:394 bitbang_swd_exchange(): bitbang_swd_exchange
Debug: 698 28 bitbang.c:394 bitbang_swd_exchange(): bitbang_swd_exchange
Debug: 699 28 bitbang.c:538 bitbang_swd_write_reg(): OK DP write reg 8 = 02000000
Debug: 700 28 bitbang.c:516 bitbang_swd_write_reg(): bitbang_swd_write_reg
Debug: 701 28 bitbang.c:394 bitbang_swd_exchange(): bitbang_swd_exchange
Debug: 702 28 bitbang.c:394 bitbang_swd_exchange(): bitbang_swd_exchange
Debug: 703 28 bitbang.c:394 bitbang_swd_exchange(): bitbang_swd_exchange
Debug: 704 28 bitbang.c:538 bitbang_swd_write_reg(): OK AP write reg 4 = e00e1004
Debug: 705 28 bitbang.c:394 bitbang_swd_exchange(): bitbang_swd_exchange
Debug: 706 28 bitbang.c:516 bitbang_swd_write_reg(): bitbang_swd_write_reg
Debug: 707 28 bitbang.c:394 bitbang_swd_exchange(): bitbang_swd_exchange
Debug: 708 28 bitbang.c:394 bitbang_swd_exchange(): bitbang_swd_exchange
Debug: 709 28 bitbang.c:394 bitbang_swd_exchange(): bitbang_swd_exchange
Debug: 710 28 bitbang.c:538 bitbang_swd_write_reg(): OK AP write reg C = 0060003f
Debug: 711 28 bitbang.c:394 bitbang_swd_exchange(): bitbang_swd_exchange
Debug: 712 29 bitbang.c:568 bitbang_swd_run_queue(): bitbang_swd_run_queue
Debug: 713 29 bitbang.c:394 bitbang_swd_exchange(): bitbang_swd_exchange
Debug: 714 29 bitbang.c:575 bitbang_swd_run_queue(): SWD queue return value: 00
Debug: 715 29 command.c:146 script_debug(): command - transport select
Debug: 716 29 command.c:146 script_debug(): command - target current
Debug: 717 29 command.c:146 script_debug(): command - stm32h7x.ap2 mem2array value 32 3759017988 1
Debug: 718 29 mem_ap.c:152 mem_ap_read_memory(): Reading memory at physical address 0xe00e1004; size 4; count 1
Debug: 719 29 bitbang.c:516 bitbang_swd_write_reg(): bitbang_swd_write_reg
Debug: 720 29 bitbang.c:394 bitbang_swd_exchange(): bitbang_swd_exchange
Debug: 721 29 bitbang.c:394 bitbang_swd_exchange(): bitbang_swd_exchange
Debug: 722 29 bitbang.c:394 bitbang_swd_exchange(): bitbang_swd_exchange
Debug: 723 29 bitbang.c:538 bitbang_swd_write_reg(): OK AP write reg 4 = e00e1004
Debug: 724 29 bitbang.c:394 bitbang_swd_exchange(): bitbang_swd_exchange
Debug: 725 30 bitbang.c:457 bitbang_swd_read_reg(): bitbang_swd_read_reg
Debug: 726 30 bitbang.c:394 bitbang_swd_exchange(): bitbang_swd_exchange
Debug: 727 30 bitbang.c:394 bitbang_swd_exchange(): bitbang_swd_exchange
Debug: 728 30 bitbang.c:479 bitbang_swd_read_reg(): OK AP read reg C = 00030003
Debug: 729 30 bitbang.c:394 bitbang_swd_exchange(): bitbang_swd_exchange
Debug: 730 30 bitbang.c:457 bitbang_swd_read_reg(): bitbang_swd_read_reg
Debug: 731 30 bitbang.c:394 bitbang_swd_exchange(): bitbang_swd_exchange
Debug: 732 31 bitbang.c:394 bitbang_swd_exchange(): bitbang_swd_exchange
Debug: 733 31 bitbang.c:479 bitbang_swd_read_reg(): OK DP read reg C = 0060003f
Debug: 734 31 bitbang.c:568 bitbang_swd_run_queue(): bitbang_swd_run_queue
Debug: 735 31 bitbang.c:394 bitbang_swd_exchange(): bitbang_swd_exchange
Debug: 736 31 bitbang.c:575 bitbang_swd_run_queue(): SWD queue return value: 00
Debug: 737 31 command.c:146 script_debug(): command - stm32h7x.ap2 mww 3759017988 6291519
Debug: 738 31 bitbang.c:516 bitbang_swd_write_reg(): bitbang_swd_write_reg
Debug: 739 31 bitbang.c:394 bitbang_swd_exchange(): bitbang_swd_exchange
Debug: 740 31 bitbang.c:394 bitbang_swd_exchange(): bitbang_swd_exchange
Debug: 741 31 bitbang.c:394 bitbang_swd_exchange(): bitbang_swd_exchange
Debug: 742 31 bitbang.c:538 bitbang_swd_write_reg(): OK DP write reg 8 = 00000010
Debug: 743 31 bitbang.c:457 bitbang_swd_read_reg(): bitbang_swd_read_reg
Debug: 744 31 bitbang.c:394 bitbang_swd_exchange(): bitbang_swd_exchange
Debug: 745 31 bitbang.c:394 bitbang_swd_exchange(): bitbang_swd_exchange
Debug: 746 31 bitbang.c:479 bitbang_swd_read_reg(): OK AP read reg 0 = 0060003f
Debug: 747 31 bitbang.c:394 bitbang_swd_exchange(): bitbang_swd_exchange
Debug: 748 31 bitbang.c:457 bitbang_swd_read_reg(): bitbang_swd_read_reg
Debug: 749 31 bitbang.c:394 bitbang_swd_exchange(): bitbang_swd_exchange
Debug: 750 31 bitbang.c:394 bitbang_swd_exchange(): bitbang_swd_exchange
Debug: 751 31 bitbang.c:479 bitbang_swd_read_reg(): OK DP read reg C = 00030003
Debug: 752 31 bitbang.c:568 bitbang_swd_run_queue(): bitbang_swd_run_queue
Debug: 753 31 bitbang.c:394 bitbang_swd_exchange(): bitbang_swd_exchange
Debug: 754 31 bitbang.c:575 bitbang_swd_run_queue(): SWD queue return value: 00
Debug: 756 31 mem_ap.c:167 mem_ap_write_memory(): Writing memory at physical address 0xe00e1004; size 4; count 1
Debug: 757 31 bitbang.c:516 bitbang_swd_write_reg(): bitbang_swd_write_reg
Debug: 758 31 bitbang.c:394 bitbang_swd_exchange(): bitbang_swd_exchange
Debug: 759 31 bitbang.c:394 bitbang_swd_exchange(): bitbang_swd_exchange
Debug: 760 31 bitbang.c:394 bitbang_swd_exchange(): bitbang_swd_exchange
Debug: 761 31 bitbang.c:538 bitbang_swd_write_reg(): OK DP write reg 8 = 02000000
Debug: 762 32 bitbang.c:516 bitbang_swd_write_reg(): bitbang_swd_write_reg
Debug: 763 32 bitbang.c:394 bitbang_swd_exchange(): bitbang_swd_exchange
Debug: 764 32 bitbang.c:394 bitbang_swd_exchange(): bitbang_swd_exchange
Debug: 765 32 bitbang.c:394 bitbang_swd_exchange(): bitbang_swd_exchange
Debug: 766 32 bitbang.c:538 bitbang_swd_write_reg(): OK AP write reg 4 = e00e1004
Debug: 767 32 bitbang.c:394 bitbang_swd_exchange(): bitbang_swd_exchange
Debug: 768 32 bitbang.c:516 bitbang_swd_write_reg(): bitbang_swd_write_reg
Debug: 769 32 bitbang.c:394 bitbang_swd_exchange(): bitbang_swd_exchange
Debug: 770 32 bitbang.c:394 bitbang_swd_exchange(): bitbang_swd_exchange
Debug: 771 32 bitbang.c:394 bitbang_swd_exchange(): bitbang_swd_exchange
Debug: 772 32 bitbang.c:538 bitbang_swd_write_reg(): OK AP write reg C = 0060003f
Debug: 773 32 bitbang.c:394 bitbang_swd_exchange(): bitbang_swd_exchange
Debug: 774 33 bitbang.c:568 bitbang_swd_run_queue(): bitbang_swd_run_queue
Debug: 775 33 bitbang.c:394 bitbang_swd_exchange(): bitbang_swd_exchange
Debug: 776 33 bitbang.c:575 bitbang_swd_run_queue(): SWD queue return value: 00
Debug: 777 33 command.c:146 script_debug(): command - transport select
Debug: 778 33 command.c:146 script_debug(): command - target current
Debug: 779 33 command.c:146 script_debug(): command - stm32h7x.ap2 mem2array value 32 3759017988 1
Debug: 780 33 mem_ap.c:152 mem_ap_read_memory(): Reading memory at physical address 0xe00e1004; size 4; count 1
Debug: 781 33 bitbang.c:516 bitbang_swd_write_reg(): bitbang_swd_write_reg
Debug: 782 33 bitbang.c:394 bitbang_swd_exchange(): bitbang_swd_exchange
Debug: 783 33 bitbang.c:394 bitbang_swd_exchange(): bitbang_swd_exchange
Debug: 784 33 bitbang.c:394 bitbang_swd_exchange(): bitbang_swd_exchange
Debug: 785 33 bitbang.c:538 bitbang_swd_write_reg(): OK AP write reg 4 = e00e1004
Debug: 786 33 bitbang.c:394 bitbang_swd_exchange(): bitbang_swd_exchange
Debug: 787 34 bitbang.c:457 bitbang_swd_read_reg(): bitbang_swd_read_reg
Debug: 788 34 bitbang.c:394 bitbang_swd_exchange(): bitbang_swd_exchange
Debug: 789 34 bitbang.c:394 bitbang_swd_exchange(): bitbang_swd_exchange
Debug: 790 34 bitbang.c:479 bitbang_swd_read_reg(): OK AP read reg C = 00030003
Debug: 791 34 bitbang.c:394 bitbang_swd_exchange(): bitbang_swd_exchange
Debug: 792 34 bitbang.c:457 bitbang_swd_read_reg(): bitbang_swd_read_reg
Debug: 793 34 bitbang.c:394 bitbang_swd_exchange(): bitbang_swd_exchange
Debug: 794 34 bitbang.c:394 bitbang_swd_exchange(): bitbang_swd_exchange
Debug: 795 35 bitbang.c:479 bitbang_swd_read_reg(): OK DP read reg C = 0060003f
Debug: 796 35 bitbang.c:568 bitbang_swd_run_queue(): bitbang_swd_run_queue
Debug: 797 35 bitbang.c:394 bitbang_swd_exchange(): bitbang_swd_exchange
Debug: 798 35 bitbang.c:575 bitbang_swd_run_queue(): SWD queue return value: 00
Debug: 799 35 command.c:146 script_debug(): command - stm32h7x.ap2 mww 3759017988 6291519
Debug: 800 35 bitbang.c:516 bitbang_swd_write_reg(): bitbang_swd_write_reg
Debug: 801 35 bitbang.c:394 bitbang_swd_exchange(): bitbang_swd_exchange
Debug: 802 35 bitbang.c:394 bitbang_swd_exchange(): bitbang_swd_exchange
Debug: 803 35 bitbang.c:394 bitbang_swd_exchange(): bitbang_swd_exchange
Debug: 804 35 bitbang.c:538 bitbang_swd_write_reg(): OK DP write reg 8 = 00000010
Debug: 805 35 bitbang.c:457 bitbang_swd_read_reg(): bitbang_swd_read_reg
Debug: 806 35 bitbang.c:394 bitbang_swd_exchange(): bitbang_swd_exchange
Debug: 807 35 bitbang.c:394 bitbang_swd_exchange(): bitbang_swd_exchange
Debug: 808 35 bitbang.c:479 bitbang_swd_read_reg(): OK AP read reg 0 = 0060003f
Debug: 809 35 bitbang.c:394 bitbang_swd_exchange(): bitbang_swd_exchange
Debug: 810 35 bitbang.c:457 bitbang_swd_read_reg(): bitbang_swd_read_reg
Debug: 811 35 bitbang.c:394 bitbang_swd_exchange(): bitbang_swd_exchange
Debug: 812 35 bitbang.c:394 bitbang_swd_exchange(): bitbang_swd_exchange
Debug: 813 35 bitbang.c:479 bitbang_swd_read_reg(): OK DP read reg C = 00030003
Debug: 814 35 bitbang.c:568 bitbang_swd_run_queue(): bitbang_swd_run_queue
Debug: 815 35 bitbang.c:394 bitbang_swd_exchange(): bitbang_swd_exchange
Debug: 816 35 bitbang.c:575 bitbang_swd_run_queue(): SWD queue return value: 00
Debug: 818 35 mem_ap.c:167 mem_ap_write_memory(): Writing memory at physical address 0xe00e1004; size 4; count 1
Debug: 819 35 bitbang.c:516 bitbang_swd_write_reg(): bitbang_swd_write_reg
Debug: 820 35 bitbang.c:394 bitbang_swd_exchange(): bitbang_swd_exchange
Debug: 821 35 bitbang.c:394 bitbang_swd_exchange(): bitbang_swd_exchange
Debug: 822 35 bitbang.c:394 bitbang_swd_exchange(): bitbang_swd_exchange
Debug: 823 35 bitbang.c:538 bitbang_swd_write_reg(): OK DP write reg 8 = 02000000
Debug: 824 35 bitbang.c:516 bitbang_swd_write_reg(): bitbang_swd_write_reg
Debug: 825 35 bitbang.c:394 bitbang_swd_exchange(): bitbang_swd_exchange
Debug: 826 35 bitbang.c:394 bitbang_swd_exchange(): bitbang_swd_exchange
Debug: 827 35 bitbang.c:394 bitbang_swd_exchange(): bitbang_swd_exchange
Debug: 828 36 bitbang.c:538 bitbang_swd_write_reg(): OK AP write reg 4 = e00e1004
Debug: 829 36 bitbang.c:394 bitbang_swd_exchange(): bitbang_swd_exchange
Debug: 830 36 bitbang.c:516 bitbang_swd_write_reg(): bitbang_swd_write_reg
Debug: 831 36 bitbang.c:394 bitbang_swd_exchange(): bitbang_swd_exchange
Debug: 832 36 bitbang.c:394 bitbang_swd_exchange(): bitbang_swd_exchange
Debug: 833 36 bitbang.c:394 bitbang_swd_exchange(): bitbang_swd_exchange
Debug: 834 36 bitbang.c:538 bitbang_swd_write_reg(): OK AP write reg C = 0060003f
Debug: 835 36 bitbang.c:394 bitbang_swd_exchange(): bitbang_swd_exchange
Debug: 836 37 bitbang.c:568 bitbang_swd_run_queue(): bitbang_swd_run_queue
Debug: 837 37 bitbang.c:394 bitbang_swd_exchange(): bitbang_swd_exchange
Debug: 838 37 bitbang.c:575 bitbang_swd_run_queue(): SWD queue return value: 00
Debug: 839 37 command.c:146 script_debug(): command - transport select
Debug: 840 37 command.c:146 script_debug(): command - target current
Debug: 841 37 command.c:146 script_debug(): command - stm32h7x.ap2 mem2array value 32 3759018036 1
Debug: 842 37 mem_ap.c:152 mem_ap_read_memory(): Reading memory at physical address 0xe00e1034; size 4; count 1
Debug: 843 37 bitbang.c:516 bitbang_swd_write_reg(): bitbang_swd_write_reg
Debug: 844 37 bitbang.c:394 bitbang_swd_exchange(): bitbang_swd_exchange
Debug: 845 37 bitbang.c:394 bitbang_swd_exchange(): bitbang_swd_exchange
Debug: 846 37 bitbang.c:394 bitbang_swd_exchange(): bitbang_swd_exchange
Debug: 847 37 bitbang.c:538 bitbang_swd_write_reg(): OK AP write reg 4 = e00e1034
Debug: 848 37 bitbang.c:394 bitbang_swd_exchange(): bitbang_swd_exchange
Debug: 849 38 bitbang.c:457 bitbang_swd_read_reg(): bitbang_swd_read_reg
Debug: 850 38 bitbang.c:394 bitbang_swd_exchange(): bitbang_swd_exchange
Debug: 851 38 bitbang.c:394 bitbang_swd_exchange(): bitbang_swd_exchange
Debug: 852 38 bitbang.c:479 bitbang_swd_read_reg(): OK AP read reg C = 00030003
Debug: 853 38 bitbang.c:394 bitbang_swd_exchange(): bitbang_swd_exchange
Debug: 854 38 bitbang.c:457 bitbang_swd_read_reg(): bitbang_swd_read_reg
Debug: 855 38 bitbang.c:394 bitbang_swd_exchange(): bitbang_swd_exchange
Debug: 856 38 bitbang.c:394 bitbang_swd_exchange(): bitbang_swd_exchange
Debug: 857 38 bitbang.c:479 bitbang_swd_read_reg(): OK DP read reg C = 00000040
Debug: 858 38 bitbang.c:568 bitbang_swd_run_queue(): bitbang_swd_run_queue
Debug: 859 38 bitbang.c:394 bitbang_swd_exchange(): bitbang_swd_exchange
Debug: 860 38 bitbang.c:575 bitbang_swd_run_queue(): SWD queue return value: 00
Debug: 861 38 command.c:146 script_debug(): command - stm32h7x.ap2 mww 3759018036 64
Debug: 862 39 bitbang.c:516 bitbang_swd_write_reg(): bitbang_swd_write_reg
Debug: 863 39 bitbang.c:394 bitbang_swd_exchange(): bitbang_swd_exchange
Debug: 864 39 bitbang.c:394 bitbang_swd_exchange(): bitbang_swd_exchange
Debug: 865 39 bitbang.c:394 bitbang_swd_exchange(): bitbang_swd_exchange
Debug: 866 39 bitbang.c:538 bitbang_swd_write_reg(): OK DP write reg 8 = 00000010
Debug: 867 39 bitbang.c:457 bitbang_swd_read_reg(): bitbang_swd_read_reg
Debug: 868 39 bitbang.c:394 bitbang_swd_exchange(): bitbang_swd_exchange
Debug: 869 39 bitbang.c:394 bitbang_swd_exchange(): bitbang_swd_exchange
Debug: 870 39 bitbang.c:479 bitbang_swd_read_reg(): OK AP read reg 0 = 00000040
Debug: 871 39 bitbang.c:394 bitbang_swd_exchange(): bitbang_swd_exchange
Debug: 872 39 bitbang.c:457 bitbang_swd_read_reg(): bitbang_swd_read_reg
Debug: 873 39 bitbang.c:394 bitbang_swd_exchange(): bitbang_swd_exchange
Debug: 874 39 bitbang.c:394 bitbang_swd_exchange(): bitbang_swd_exchange
Debug: 875 39 bitbang.c:479 bitbang_swd_read_reg(): OK DP read reg C = 00030003
Debug: 876 39 bitbang.c:568 bitbang_swd_run_queue(): bitbang_swd_run_queue
Debug: 877 39 bitbang.c:394 bitbang_swd_exchange(): bitbang_swd_exchange
Debug: 878 39 bitbang.c:575 bitbang_swd_run_queue(): SWD queue return value: 00
Debug: 880 39 mem_ap.c:167 mem_ap_write_memory(): Writing memory at physical address 0xe00e1034; size 4; count 1
Debug: 881 39 bitbang.c:516 bitbang_swd_write_reg(): bitbang_swd_write_reg
Debug: 882 39 bitbang.c:394 bitbang_swd_exchange(): bitbang_swd_exchange
Debug: 883 39 bitbang.c:394 bitbang_swd_exchange(): bitbang_swd_exchange
Debug: 884 39 bitbang.c:394 bitbang_swd_exchange(): bitbang_swd_exchange
Debug: 885 39 bitbang.c:538 bitbang_swd_write_reg(): OK DP write reg 8 = 02000000
Debug: 886 39 bitbang.c:516 bitbang_swd_write_reg(): bitbang_swd_write_reg
Debug: 887 39 bitbang.c:394 bitbang_swd_exchange(): bitbang_swd_exchange
Debug: 888 39 bitbang.c:394 bitbang_swd_exchange(): bitbang_swd_exchange
Debug: 889 39 bitbang.c:394 bitbang_swd_exchange(): bitbang_swd_exchange
Debug: 890 39 bitbang.c:538 bitbang_swd_write_reg(): OK AP write reg 4 = e00e1034
Debug: 891 39 bitbang.c:394 bitbang_swd_exchange(): bitbang_swd_exchange
Debug: 892 40 bitbang.c:516 bitbang_swd_write_reg(): bitbang_swd_write_reg
Debug: 893 40 bitbang.c:394 bitbang_swd_exchange(): bitbang_swd_exchange
Debug: 894 40 bitbang.c:394 bitbang_swd_exchange(): bitbang_swd_exchange
Debug: 895 40 bitbang.c:394 bitbang_swd_exchange(): bitbang_swd_exchange
Debug: 896 40 bitbang.c:538 bitbang_swd_write_reg(): OK AP write reg C = 00000040
Debug: 897 40 bitbang.c:394 bitbang_swd_exchange(): bitbang_swd_exchange
Debug: 898 41 bitbang.c:568 bitbang_swd_run_queue(): bitbang_swd_run_queue
Debug: 899 41 bitbang.c:394 bitbang_swd_exchange(): bitbang_swd_exchange
Debug: 900 41 bitbang.c:575 bitbang_swd_run_queue(): SWD queue return value: 00
Debug: 901 41 command.c:146 script_debug(): command - transport select
Debug: 902 41 command.c:146 script_debug(): command - target current
Debug: 903 41 command.c:146 script_debug(): command - stm32h7x.ap2 mem2array value 32 3759018044 1
Debug: 904 41 mem_ap.c:152 mem_ap_read_memory(): Reading memory at physical address 0xe00e103c; size 4; count 1
Debug: 905 41 bitbang.c:516 bitbang_swd_write_reg(): bitbang_swd_write_reg
Debug: 906 41 bitbang.c:394 bitbang_swd_exchange(): bitbang_swd_exchange
Debug: 907 41 bitbang.c:394 bitbang_swd_exchange(): bitbang_swd_exchange
Debug: 908 41 bitbang.c:394 bitbang_swd_exchange(): bitbang_swd_exchange
Debug: 909 41 bitbang.c:538 bitbang_swd_write_reg(): OK AP write reg 4 = e00e103c
Debug: 910 41 bitbang.c:394 bitbang_swd_exchange(): bitbang_swd_exchange
Debug: 911 41 bitbang.c:457 bitbang_swd_read_reg(): bitbang_swd_read_reg
Debug: 912 41 bitbang.c:394 bitbang_swd_exchange(): bitbang_swd_exchange
Debug: 913 41 bitbang.c:394 bitbang_swd_exchange(): bitbang_swd_exchange
Debug: 914 42 bitbang.c:479 bitbang_swd_read_reg(): OK AP read reg C = 00030003
Debug: 915 42 bitbang.c:394 bitbang_swd_exchange(): bitbang_swd_exchange
Debug: 916 42 bitbang.c:457 bitbang_swd_read_reg(): bitbang_swd_read_reg
Debug: 917 42 bitbang.c:394 bitbang_swd_exchange(): bitbang_swd_exchange
Debug: 918 42 bitbang.c:394 bitbang_swd_exchange(): bitbang_swd_exchange
Debug: 919 42 bitbang.c:479 bitbang_swd_read_reg(): OK DP read reg C = 00000800
Debug: 920 42 bitbang.c:568 bitbang_swd_run_queue(): bitbang_swd_run_queue
Debug: 921 42 bitbang.c:394 bitbang_swd_exchange(): bitbang_swd_exchange
Debug: 922 42 bitbang.c:575 bitbang_swd_run_queue(): SWD queue return value: 00
Debug: 923 42 command.c:146 script_debug(): command - stm32h7x.ap2 mww 3759018044 2048
Debug: 924 42 bitbang.c:516 bitbang_swd_write_reg(): bitbang_swd_write_reg
Debug: 925 42 bitbang.c:394 bitbang_swd_exchange(): bitbang_swd_exchange
Debug: 926 42 bitbang.c:394 bitbang_swd_exchange(): bitbang_swd_exchange
Debug: 927 42 bitbang.c:394 bitbang_swd_exchange(): bitbang_swd_exchange
Debug: 928 42 bitbang.c:538 bitbang_swd_write_reg(): OK DP write reg 8 = 00000010
Debug: 929 42 bitbang.c:457 bitbang_swd_read_reg(): bitbang_swd_read_reg
Debug: 930 42 bitbang.c:394 bitbang_swd_exchange(): bitbang_swd_exchange
Debug: 931 42 bitbang.c:394 bitbang_swd_exchange(): bitbang_swd_exchange
Debug: 932 43 bitbang.c:479 bitbang_swd_read_reg(): OK AP read reg 0 = 00000800
Debug: 933 43 bitbang.c:394 bitbang_swd_exchange(): bitbang_swd_exchange
Debug: 934 43 bitbang.c:457 bitbang_swd_read_reg(): bitbang_swd_read_reg
Debug: 935 43 bitbang.c:394 bitbang_swd_exchange(): bitbang_swd_exchange
Debug: 936 43 bitbang.c:394 bitbang_swd_exchange(): bitbang_swd_exchange
Debug: 937 43 bitbang.c:479 bitbang_swd_read_reg(): OK DP read reg C = 00030003
Debug: 938 43 bitbang.c:568 bitbang_swd_run_queue(): bitbang_swd_run_queue
Debug: 939 43 bitbang.c:394 bitbang_swd_exchange(): bitbang_swd_exchange
Debug: 940 43 bitbang.c:575 bitbang_swd_run_queue(): SWD queue return value: 00
Debug: 942 43 mem_ap.c:167 mem_ap_write_memory(): Writing memory at physical address 0xe00e103c; size 4; count 1
Debug: 943 43 bitbang.c:516 bitbang_swd_write_reg(): bitbang_swd_write_reg
Debug: 944 43 bitbang.c:394 bitbang_swd_exchange(): bitbang_swd_exchange
Debug: 945 43 bitbang.c:394 bitbang_swd_exchange(): bitbang_swd_exchange
Debug: 946 43 bitbang.c:394 bitbang_swd_exchange(): bitbang_swd_exchange
Debug: 947 43 bitbang.c:538 bitbang_swd_write_reg(): OK DP write reg 8 = 02000000
Debug: 948 43 bitbang.c:516 bitbang_swd_write_reg(): bitbang_swd_write_reg
Debug: 949 43 bitbang.c:394 bitbang_swd_exchange(): bitbang_swd_exchange
Debug: 950 43 bitbang.c:394 bitbang_swd_exchange(): bitbang_swd_exchange
Debug: 951 43 bitbang.c:394 bitbang_swd_exchange(): bitbang_swd_exchange
Debug: 952 43 bitbang.c:538 bitbang_swd_write_reg(): OK AP write reg 4 = e00e103c
Debug: 953 43 bitbang.c:394 bitbang_swd_exchange(): bitbang_swd_exchange
Debug: 954 44 bitbang.c:516 bitbang_swd_write_reg(): bitbang_swd_write_reg
Debug: 955 44 bitbang.c:394 bitbang_swd_exchange(): bitbang_swd_exchange
Debug: 956 44 bitbang.c:394 bitbang_swd_exchange(): bitbang_swd_exchange
Debug: 957 44 bitbang.c:394 bitbang_swd_exchange(): bitbang_swd_exchange
Debug: 958 44 bitbang.c:538 bitbang_swd_write_reg(): OK AP write reg C = 00000800
Debug: 959 44 bitbang.c:394 bitbang_swd_exchange(): bitbang_swd_exchange
Debug: 960 44 bitbang.c:568 bitbang_swd_run_queue(): bitbang_swd_run_queue
Debug: 961 44 bitbang.c:394 bitbang_swd_exchange(): bitbang_swd_exchange
Debug: 962 44 bitbang.c:575 bitbang_swd_run_queue(): SWD queue return value: 00
Debug: 963 44 command.c:146 script_debug(): command - transport select
Debug: 964 45 command.c:146 script_debug(): command - target current
Debug: 965 45 command.c:146 script_debug(): command - stm32h7x.ap2 mem2array value 32 3759018068 1
Debug: 966 45 mem_ap.c:152 mem_ap_read_memory(): Reading memory at physical address 0xe00e1054; size 4; count 1
Debug: 967 45 bitbang.c:516 bitbang_swd_write_reg(): bitbang_swd_write_reg
Debug: 968 45 bitbang.c:394 bitbang_swd_exchange(): bitbang_swd_exchange
Debug: 969 45 bitbang.c:394 bitbang_swd_exchange(): bitbang_swd_exchange
Debug: 970 45 bitbang.c:394 bitbang_swd_exchange(): bitbang_swd_exchange
Debug: 971 45 bitbang.c:538 bitbang_swd_write_reg(): OK AP write reg 4 = e00e1054
Debug: 972 45 bitbang.c:394 bitbang_swd_exchange(): bitbang_swd_exchange
Debug: 973 45 bitbang.c:457 bitbang_swd_read_reg(): bitbang_swd_read_reg
Debug: 974 45 bitbang.c:394 bitbang_swd_exchange(): bitbang_swd_exchange
Debug: 975 45 bitbang.c:394 bitbang_swd_exchange(): bitbang_swd_exchange
Debug: 976 45 bitbang.c:479 bitbang_swd_read_reg(): OK AP read reg C = 00030003
Debug: 977 45 bitbang.c:394 bitbang_swd_exchange(): bitbang_swd_exchange
Debug: 978 46 bitbang.c:457 bitbang_swd_read_reg(): bitbang_swd_read_reg
Debug: 979 46 bitbang.c:394 bitbang_swd_exchange(): bitbang_swd_exchange
Debug: 980 46 bitbang.c:394 bitbang_swd_exchange(): bitbang_swd_exchange
Debug: 981 46 bitbang.c:479 bitbang_swd_read_reg(): OK DP read reg C = 000c0000
Debug: 982 46 bitbang.c:568 bitbang_swd_run_queue(): bitbang_swd_run_queue
Debug: 983 46 bitbang.c:394 bitbang_swd_exchange(): bitbang_swd_exchange
Debug: 984 46 bitbang.c:575 bitbang_swd_run_queue(): SWD queue return value: 00
Debug: 985 46 command.c:146 script_debug(): command - stm32h7x.ap2 mww 3759018068 786432
Debug: 986 46 bitbang.c:516 bitbang_swd_write_reg(): bitbang_swd_write_reg
Debug: 987 46 bitbang.c:394 bitbang_swd_exchange(): bitbang_swd_exchange
Debug: 988 46 bitbang.c:394 bitbang_swd_exchange(): bitbang_swd_exchange
Debug: 989 46 bitbang.c:394 bitbang_swd_exchange(): bitbang_swd_exchange
Debug: 990 46 bitbang.c:538 bitbang_swd_write_reg(): OK DP write reg 8 = 00000010
Debug: 991 46 bitbang.c:457 bitbang_swd_read_reg(): bitbang_swd_read_reg
Debug: 992 46 bitbang.c:394 bitbang_swd_exchange(): bitbang_swd_exchange
Debug: 993 46 bitbang.c:394 bitbang_swd_exchange(): bitbang_swd_exchange
Debug: 994 46 bitbang.c:479 bitbang_swd_read_reg(): OK AP read reg 0 = 000c0000
Debug: 995 46 bitbang.c:394 bitbang_swd_exchange(): bitbang_swd_exchange
Debug: 996 46 bitbang.c:457 bitbang_swd_read_reg(): bitbang_swd_read_reg
Debug: 997 46 bitbang.c:394 bitbang_swd_exchange(): bitbang_swd_exchange
Debug: 998 46 bitbang.c:394 bitbang_swd_exchange(): bitbang_swd_exchange
Debug: 999 47 bitbang.c:479 bitbang_swd_read_reg(): OK DP read reg C = 00030003
Debug: 1000 47 bitbang.c:568 bitbang_swd_run_queue(): bitbang_swd_run_queue
Debug: 1001 47 bitbang.c:394 bitbang_swd_exchange(): bitbang_swd_exchange
Debug: 1002 47 bitbang.c:575 bitbang_swd_run_queue(): SWD queue return value: 00
Debug: 1004 47 mem_ap.c:167 mem_ap_write_memory(): Writing memory at physical address 0xe00e1054; size 4; count 1
Debug: 1005 47 bitbang.c:516 bitbang_swd_write_reg(): bitbang_swd_write_reg
Debug: 1006 47 bitbang.c:394 bitbang_swd_exchange(): bitbang_swd_exchange
Debug: 1007 47 bitbang.c:394 bitbang_swd_exchange(): bitbang_swd_exchange
Debug: 1008 47 bitbang.c:394 bitbang_swd_exchange(): bitbang_swd_exchange
Debug: 1009 47 bitbang.c:538 bitbang_swd_write_reg(): OK DP write reg 8 = 02000000
Debug: 1010 47 bitbang.c:516 bitbang_swd_write_reg(): bitbang_swd_write_reg
Debug: 1011 47 bitbang.c:394 bitbang_swd_exchange(): bitbang_swd_exchange
Debug: 1012 47 bitbang.c:394 bitbang_swd_exchange(): bitbang_swd_exchange
Debug: 1013 47 bitbang.c:394 bitbang_swd_exchange(): bitbang_swd_exchange
Debug: 1014 47 bitbang.c:538 bitbang_swd_write_reg(): OK AP write reg 4 = e00e1054
Debug: 1015 47 bitbang.c:394 bitbang_swd_exchange(): bitbang_swd_exchange
Debug: 1016 47 bitbang.c:516 bitbang_swd_write_reg(): bitbang_swd_write_reg
Debug: 1017 47 bitbang.c:394 bitbang_swd_exchange(): bitbang_swd_exchange
Debug: 1018 47 bitbang.c:394 bitbang_swd_exchange(): bitbang_swd_exchange
Debug: 1019 48 bitbang.c:394 bitbang_swd_exchange(): bitbang_swd_exchange
Debug: 1020 48 bitbang.c:538 bitbang_swd_write_reg(): OK AP write reg C = 000c0000
Debug: 1021 48 bitbang.c:394 bitbang_swd_exchange(): bitbang_swd_exchange
Debug: 1022 48 bitbang.c:568 bitbang_swd_run_queue(): bitbang_swd_run_queue
Debug: 1023 48 bitbang.c:394 bitbang_swd_exchange(): bitbang_swd_exchange
Debug: 1024 48 bitbang.c:575 bitbang_swd_run_queue(): SWD queue return value: 00
Debug: 1025 48 command.c:146 script_debug(): command - flash init
Debug: 1026 48 bitbang.c:516 bitbang_swd_write_reg(): bitbang_swd_write_reg
Debug: 1027 48 bitbang.c:394 bitbang_swd_exchange(): bitbang_swd_exchange
Debug: 1028 48 bitbang.c:394 bitbang_swd_exchange(): bitbang_swd_exchange
Debug: 1029 48 bitbang.c:394 bitbang_swd_exchange(): bitbang_swd_exchange
Debug: 1030 48 bitbang.c:538 bitbang_swd_write_reg(): OK DP write reg 8 = 00000010
Debug: 1031 48 bitbang.c:457 bitbang_swd_read_reg(): bitbang_swd_read_reg
Debug: 1032 48 bitbang.c:394 bitbang_swd_exchange(): bitbang_swd_exchange
Debug: 1033 48 bitbang.c:394 bitbang_swd_exchange(): bitbang_swd_exchange
Debug: 1034 48 bitbang.c:479 bitbang_swd_read_reg(): OK AP read reg 0 = 00030003
Debug: 1035 48 bitbang.c:394 bitbang_swd_exchange(): bitbang_swd_exchange
Debug: 1036 48 bitbang.c:457 bitbang_swd_read_reg(): bitbang_swd_read_reg
Debug: 1037 48 bitbang.c:394 bitbang_swd_exchange(): bitbang_swd_exchange
Debug: 1038 49 bitbang.c:394 bitbang_swd_exchange(): bitbang_swd_exchange
Debug: 1039 49 bitbang.c:479 bitbang_swd_read_reg(): OK DP read reg C = 00030003
Debug: 1040 49 bitbang.c:568 bitbang_swd_run_queue(): bitbang_swd_run_queue
Debug: 1041 49 bitbang.c:394 bitbang_swd_exchange(): bitbang_swd_exchange
Debug: 1042 49 bitbang.c:575 bitbang_swd_run_queue(): SWD queue return value: 00
Debug: 1044 49 tcl.c:1385 handle_flash_init_command(): Initializing flash devices...
Debug: 1045 49 command.c:146 script_debug(): command - nand init
Debug: 1046 49 bitbang.c:457 bitbang_swd_read_reg(): bitbang_swd_read_reg
Debug: 1047 49 bitbang.c:394 bitbang_swd_exchange(): bitbang_swd_exchange
Debug: 1048 49 bitbang.c:394 bitbang_swd_exchange(): bitbang_swd_exchange
Debug: 1049 49 bitbang.c:479 bitbang_swd_read_reg(): OK AP read reg 0 = 00030003
Debug: 1050 49 bitbang.c:394 bitbang_swd_exchange(): bitbang_swd_exchange
Debug: 1051 49 bitbang.c:457 bitbang_swd_read_reg(): bitbang_swd_read_reg
Debug: 1052 49 bitbang.c:394 bitbang_swd_exchange(): bitbang_swd_exchange
Debug: 1053 49 bitbang.c:394 bitbang_swd_exchange(): bitbang_swd_exchange
Debug: 1054 49 bitbang.c:479 bitbang_swd_read_reg(): OK DP read reg C = 00030003
Debug: 1055 49 bitbang.c:568 bitbang_swd_run_queue(): bitbang_swd_run_queue
Debug: 1056 49 bitbang.c:394 bitbang_swd_exchange(): bitbang_swd_exchange
Debug: 1057 49 bitbang.c:575 bitbang_swd_run_queue(): SWD queue return value: 00
Debug: 1059 49 tcl.c:498 handle_nand_init_command(): Initializing NAND devices...
Debug: 1060 49 command.c:146 script_debug(): command - pld init
Debug: 1061 49 bitbang.c:457 bitbang_swd_read_reg(): bitbang_swd_read_reg
Debug: 1062 49 bitbang.c:394 bitbang_swd_exchange(): bitbang_swd_exchange
Debug: 1063 49 bitbang.c:394 bitbang_swd_exchange(): bitbang_swd_exchange
Debug: 1064 49 bitbang.c:479 bitbang_swd_read_reg(): OK AP read reg 0 = 00030003
Debug: 1065 49 bitbang.c:394 bitbang_swd_exchange(): bitbang_swd_exchange
Debug: 1066 49 bitbang.c:457 bitbang_swd_read_reg(): bitbang_swd_read_reg
Debug: 1067 49 bitbang.c:394 bitbang_swd_exchange(): bitbang_swd_exchange
Debug: 1068 49 bitbang.c:394 bitbang_swd_exchange(): bitbang_swd_exchange
Debug: 1069 49 bitbang.c:479 bitbang_swd_read_reg(): OK DP read reg C = 00030003
Debug: 1070 49 bitbang.c:568 bitbang_swd_run_queue(): bitbang_swd_run_queue
Debug: 1071 49 bitbang.c:394 bitbang_swd_exchange(): bitbang_swd_exchange
Debug: 1072 49 bitbang.c:575 bitbang_swd_run_queue(): SWD queue return value: 00
Debug: 1074 49 pld.c:206 handle_pld_init_command(): Initializing PLDs...
Debug: 1075 49 gdb_server.c:3536 gdb_target_add_one(): skip gdb server for target stm32h7x.ap2
Info : 1076 50 gdb_server.c:3503 gdb_target_start(): starting gdb server for stm32h7x.cpu0 on 3333
Info : 1077 50 server.c:311 add_service(): Listening on port 3333 for gdb connections
Debug: 1078 50 command.c:146 script_debug(): command - targets
Debug: 1079 50 bitbang.c:457 bitbang_swd_read_reg(): bitbang_swd_read_reg
Debug: 1080 50 bitbang.c:394 bitbang_swd_exchange(): bitbang_swd_exchange
Debug: 1081 50 bitbang.c:394 bitbang_swd_exchange(): bitbang_swd_exchange
Debug: 1082 50 bitbang.c:479 bitbang_swd_read_reg(): OK AP read reg 0 = 00030003
Debug: 1083 50 bitbang.c:394 bitbang_swd_exchange(): bitbang_swd_exchange
Debug: 1084 50 bitbang.c:457 bitbang_swd_read_reg(): bitbang_swd_read_reg
Debug: 1085 50 bitbang.c:394 bitbang_swd_exchange(): bitbang_swd_exchange
Debug: 1086 50 bitbang.c:394 bitbang_swd_exchange(): bitbang_swd_exchange
Debug: 1087 50 bitbang.c:479 bitbang_swd_read_reg(): OK DP read reg C = 00030003
Debug: 1088 50 bitbang.c:568 bitbang_swd_run_queue(): bitbang_swd_run_queue
Debug: 1089 50 bitbang.c:394 bitbang_swd_exchange(): bitbang_swd_exchange
Debug: 1090 50 bitbang.c:575 bitbang_swd_run_queue(): SWD queue return value: 00
Debug: 1092 50 command.c:146 script_debug(): command - reset halt
Debug: 1093 50 bitbang.c:457 bitbang_swd_read_reg(): bitbang_swd_read_reg
Debug: 1094 50 bitbang.c:394 bitbang_swd_exchange(): bitbang_swd_exchange
Debug: 1095 50 bitbang.c:394 bitbang_swd_exchange(): bitbang_swd_exchange
Debug: 1096 50 bitbang.c:479 bitbang_swd_read_reg(): OK AP read reg 0 = 00030003
Debug: 1097 50 bitbang.c:394 bitbang_swd_exchange(): bitbang_swd_exchange
Debug: 1098 50 bitbang.c:457 bitbang_swd_read_reg(): bitbang_swd_read_reg
Debug: 1099 50 bitbang.c:394 bitbang_swd_exchange(): bitbang_swd_exchange
Debug: 1100 50 bitbang.c:394 bitbang_swd_exchange(): bitbang_swd_exchange
Debug: 1101 50 bitbang.c:479 bitbang_swd_read_reg(): OK DP read reg C = 00030003
Debug: 1102 50 bitbang.c:568 bitbang_swd_run_queue(): bitbang_swd_run_queue
Debug: 1103 50 bitbang.c:394 bitbang_swd_exchange(): bitbang_swd_exchange
Debug: 1104 50 bitbang.c:575 bitbang_swd_run_queue(): SWD queue return value: 00
Debug: 1106 50 target.c:1844 target_call_reset_callbacks(): target reset 2 (halt)
Debug: 1107 50 target.c:1844 target_call_reset_callbacks(): target reset 2 (halt)
Debug: 1108 51 command.c:146 script_debug(): command - target names
Debug: 1109 51 command.c:146 script_debug(): command - stm32h7x.ap2 invoke-event reset-start
Debug: 1110 51 command.c:146 script_debug(): command - stm32h7x.cpu0 invoke-event reset-start
Debug: 1111 51 command.c:146 script_debug(): command - transport select
Debug: 1112 51 command.c:146 script_debug(): command - transport select
Debug: 1113 51 command.c:146 script_debug(): command - stm32h7x.ap2 invoke-event examine-start
Debug: 1114 51 command.c:146 script_debug(): command - stm32h7x.ap2 arp_examine allow-defer
Debug: 1115 51 command.c:146 script_debug(): command - stm32h7x.ap2 invoke-event examine-end
Debug: 1116 51 command.c:146 script_debug(): command - transport select
Debug: 1117 51 command.c:146 script_debug(): command - stm32h7x.cpu0 invoke-event examine-start
Debug: 1118 51 command.c:146 script_debug(): command - stm32h7x.cpu0 arp_examine allow-defer
Debug: 1119 51 bitbang.c:516 bitbang_swd_write_reg(): bitbang_swd_write_reg
Debug: 1120 51 bitbang.c:394 bitbang_swd_exchange(): bitbang_swd_exchange
Debug: 1121 51 bitbang.c:394 bitbang_swd_exchange(): bitbang_swd_exchange
Debug: 1122 51 bitbang.c:394 bitbang_swd_exchange(): bitbang_swd_exchange
Debug: 1123 51 bitbang.c:538 bitbang_swd_write_reg(): OK DP write reg 8 = 00000000
Debug: 1124 51 bitbang.c:516 bitbang_swd_write_reg(): bitbang_swd_write_reg
Debug: 1125 51 bitbang.c:394 bitbang_swd_exchange(): bitbang_swd_exchange
Debug: 1126 51 bitbang.c:394 bitbang_swd_exchange(): bitbang_swd_exchange
Debug: 1127 51 bitbang.c:394 bitbang_swd_exchange(): bitbang_swd_exchange
Debug: 1128 51 bitbang.c:538 bitbang_swd_write_reg(): OK AP write reg 0 = aa000020
Debug: 1129 51 bitbang.c:394 bitbang_swd_exchange(): bitbang_swd_exchange
Debug: 1130 51 bitbang.c:516 bitbang_swd_write_reg(): bitbang_swd_write_reg
Debug: 1131 51 bitbang.c:394 bitbang_swd_exchange(): bitbang_swd_exchange
Debug: 1132 51 bitbang.c:394 bitbang_swd_exchange(): bitbang_swd_exchange
Debug: 1133 51 bitbang.c:394 bitbang_swd_exchange(): bitbang_swd_exchange
Debug: 1134 51 bitbang.c:538 bitbang_swd_write_reg(): OK AP write reg 4 = 00000000
Debug: 1135 51 bitbang.c:394 bitbang_swd_exchange(): bitbang_swd_exchange
Debug: 1136 51 bitbang.c:457 bitbang_swd_read_reg(): bitbang_swd_read_reg
Debug: 1137 51 bitbang.c:394 bitbang_swd_exchange(): bitbang_swd_exchange
Debug: 1138 51 bitbang.c:394 bitbang_swd_exchange(): bitbang_swd_exchange
Debug: 1139 52 bitbang.c:479 bitbang_swd_read_reg(): OK AP read reg 0 = 00030003
Debug: 1140 52 bitbang.c:394 bitbang_swd_exchange(): bitbang_swd_exchange
Debug: 1141 52 bitbang.c:457 bitbang_swd_read_reg(): bitbang_swd_read_reg
Debug: 1142 52 bitbang.c:394 bitbang_swd_exchange(): bitbang_swd_exchange
Debug: 1143 52 bitbang.c:394 bitbang_swd_exchange(): bitbang_swd_exchange
Debug: 1144 52 bitbang.c:479 bitbang_swd_read_reg(): OK DP read reg C = 0a800060
Debug: 1145 52 bitbang.c:516 bitbang_swd_write_reg(): bitbang_swd_write_reg
Debug: 1146 52 bitbang.c:394 bitbang_swd_exchange(): bitbang_swd_exchange
Debug: 1147 52 bitbang.c:394 bitbang_swd_exchange(): bitbang_swd_exchange
Debug: 1148 52 bitbang.c:394 bitbang_swd_exchange(): bitbang_swd_exchange
Debug: 1149 52 bitbang.c:538 bitbang_swd_write_reg(): OK DP write reg 8 = 000000f0
Debug: 1150 52 bitbang.c:457 bitbang_swd_read_reg(): bitbang_swd_read_reg
Debug: 1151 52 bitbang.c:394 bitbang_swd_exchange(): bitbang_swd_exchange
Debug: 1152 52 bitbang.c:394 bitbang_swd_exchange(): bitbang_swd_exchange
Debug: 1153 52 bitbang.c:479 bitbang_swd_read_reg(): OK AP read reg 4 = 0a800060
Debug: 1154 52 bitbang.c:394 bitbang_swd_exchange(): bitbang_swd_exchange
Debug: 1155 52 bitbang.c:457 bitbang_swd_read_reg(): bitbang_swd_read_reg
Debug: 1156 52 bitbang.c:394 bitbang_swd_exchange(): bitbang_swd_exchange
Debug: 1157 52 bitbang.c:394 bitbang_swd_exchange(): bitbang_swd_exchange
Debug: 1158 52 bitbang.c:479 bitbang_swd_read_reg(): OK DP read reg C = 00000000
Debug: 1159 52 bitbang.c:568 bitbang_swd_run_queue(): bitbang_swd_run_queue
Debug: 1160 52 bitbang.c:394 bitbang_swd_exchange(): bitbang_swd_exchange
Debug: 1161 52 bitbang.c:575 bitbang_swd_run_queue(): SWD queue return value: 00
Debug: 1162 52 arm_adi_v5.c:792 mem_ap_init(): MEM_AP Packed Transfers: enabled
Debug: 1163 52 arm_adi_v5.c:803 mem_ap_init(): MEM_AP CFG: large data 0, long address 0, big-endian 0
Debug: 1164 52 command.c:146 script_debug(): command - stm32h7x.cpu0 invoke-event examine-end
Debug: 1165 52 target.c:4773 target_handle_event(): target(1): stm32h7x.cpu0 (cortex_m) event: 21 (examine-end) action: 
	# Enable D3 and D1 DBG clocks
	# DBGMCU_CR |= D3DBGCKEN | D1DBGCKEN
	stm32h7x_dbgmcu_mmw 0x004 0x00600000 0

	# Enable debug during low power modes (uses more power)
	# DBGMCU_CR |= DBG_STANDBY | DBG_STOP | DBG_SLEEP D1 Domain
	stm32h7x_dbgmcu_mmw 0x004 0x00000007 0
	# DBGMCU_CR |= DBG_STANDBY | DBG_STOP | DBG_SLEEP D2 Domain
	stm32h7x_dbgmcu_mmw 0x004 0x00000038 0

	# Stop watchdog counters during halt
	# DBGMCU_APB3FZ1 |= WWDG1
	stm32h7x_dbgmcu_mmw 0x034 0x00000040 0
	# DBGMCU_APB1LFZ1 |= WWDG2
	stm32h7x_dbgmcu_mmw 0x03C 0x00000800 0
	# DBGMCU_APB4FZ1 |= WDGLSD1 | WDGLSD2
	stm32h7x_dbgmcu_mmw 0x054 0x000C0000 0

Debug: 1166 52 command.c:146 script_debug(): command - transport select
Debug: 1167 52 command.c:146 script_debug(): command - target current
Debug: 1168 52 command.c:146 script_debug(): command - stm32h7x.ap2 mem2array value 32 3759017988 1
Debug: 1169 52 mem_ap.c:152 mem_ap_read_memory(): Reading memory at physical address 0xe00e1004; size 4; count 1
Debug: 1170 52 bitbang.c:516 bitbang_swd_write_reg(): bitbang_swd_write_reg
Debug: 1171 52 bitbang.c:394 bitbang_swd_exchange(): bitbang_swd_exchange
Debug: 1172 53 bitbang.c:394 bitbang_swd_exchange(): bitbang_swd_exchange
Debug: 1173 53 bitbang.c:394 bitbang_swd_exchange(): bitbang_swd_exchange
Debug: 1174 53 bitbang.c:538 bitbang_swd_write_reg(): OK DP write reg 8 = 02000000
Debug: 1175 53 bitbang.c:516 bitbang_swd_write_reg(): bitbang_swd_write_reg
Debug: 1176 53 bitbang.c:394 bitbang_swd_exchange(): bitbang_swd_exchange
Debug: 1177 53 bitbang.c:394 bitbang_swd_exchange(): bitbang_swd_exchange
Debug: 1178 53 bitbang.c:394 bitbang_swd_exchange(): bitbang_swd_exchange
Debug: 1179 53 bitbang.c:538 bitbang_swd_write_reg(): OK AP write reg 4 = e00e1004
Debug: 1180 53 bitbang.c:394 bitbang_swd_exchange(): bitbang_swd_exchange
Debug: 1181 53 bitbang.c:457 bitbang_swd_read_reg(): bitbang_swd_read_reg
Debug: 1182 53 bitbang.c:394 bitbang_swd_exchange(): bitbang_swd_exchange
Debug: 1183 53 bitbang.c:394 bitbang_swd_exchange(): bitbang_swd_exchange
Debug: 1184 53 bitbang.c:479 bitbang_swd_read_reg(): OK AP read reg C = 00000000
Debug: 1185 53 bitbang.c:394 bitbang_swd_exchange(): bitbang_swd_exchange
Debug: 1186 54 bitbang.c:457 bitbang_swd_read_reg(): bitbang_swd_read_reg
Debug: 1187 54 bitbang.c:394 bitbang_swd_exchange(): bitbang_swd_exchange
Debug: 1188 54 bitbang.c:394 bitbang_swd_exchange(): bitbang_swd_exchange
Debug: 1189 54 bitbang.c:479 bitbang_swd_read_reg(): OK DP read reg C = 0060003f
Debug: 1190 54 bitbang.c:568 bitbang_swd_run_queue(): bitbang_swd_run_queue
Debug: 1191 54 bitbang.c:394 bitbang_swd_exchange(): bitbang_swd_exchange
Debug: 1192 54 bitbang.c:575 bitbang_swd_run_queue(): SWD queue return value: 00
Debug: 1193 54 command.c:146 script_debug(): command - stm32h7x.ap2 mww 3759017988 6291519
Debug: 1195 54 mem_ap.c:167 mem_ap_write_memory(): Writing memory at physical address 0xe00e1004; size 4; count 1
Debug: 1196 54 bitbang.c:516 bitbang_swd_write_reg(): bitbang_swd_write_reg
Debug: 1197 54 bitbang.c:394 bitbang_swd_exchange(): bitbang_swd_exchange
Debug: 1198 54 bitbang.c:394 bitbang_swd_exchange(): bitbang_swd_exchange
Debug: 1199 54 bitbang.c:394 bitbang_swd_exchange(): bitbang_swd_exchange
Debug: 1200 54 bitbang.c:538 bitbang_swd_write_reg(): OK AP write reg 4 = e00e1004
Debug: 1201 54 bitbang.c:394 bitbang_swd_exchange(): bitbang_swd_exchange
Debug: 1202 55 bitbang.c:516 bitbang_swd_write_reg(): bitbang_swd_write_reg
Debug: 1203 55 bitbang.c:394 bitbang_swd_exchange(): bitbang_swd_exchange
Debug: 1204 55 bitbang.c:394 bitbang_swd_exchange(): bitbang_swd_exchange
Debug: 1205 55 bitbang.c:394 bitbang_swd_exchange(): bitbang_swd_exchange
Debug: 1206 55 bitbang.c:538 bitbang_swd_write_reg(): OK AP write reg C = 0060003f
Debug: 1207 55 bitbang.c:394 bitbang_swd_exchange(): bitbang_swd_exchange
Debug: 1208 55 bitbang.c:568 bitbang_swd_run_queue(): bitbang_swd_run_queue
Debug: 1209 56 bitbang.c:394 bitbang_swd_exchange(): bitbang_swd_exchange
Debug: 1210 56 bitbang.c:575 bitbang_swd_run_queue(): SWD queue return value: 00
Debug: 1211 56 command.c:146 script_debug(): command - transport select
Debug: 1212 56 command.c:146 script_debug(): command - target current
Debug: 1213 56 command.c:146 script_debug(): command - stm32h7x.ap2 mem2array value 32 3759017988 1
Debug: 1214 56 mem_ap.c:152 mem_ap_read_memory(): Reading memory at physical address 0xe00e1004; size 4; count 1
Debug: 1215 56 bitbang.c:516 bitbang_swd_write_reg(): bitbang_swd_write_reg
Debug: 1216 56 bitbang.c:394 bitbang_swd_exchange(): bitbang_swd_exchange
Debug: 1217 56 bitbang.c:394 bitbang_swd_exchange(): bitbang_swd_exchange
Debug: 1218 56 bitbang.c:394 bitbang_swd_exchange(): bitbang_swd_exchange
Debug: 1219 56 bitbang.c:538 bitbang_swd_write_reg(): OK AP write reg 4 = e00e1004
Debug: 1220 56 bitbang.c:394 bitbang_swd_exchange(): bitbang_swd_exchange
Debug: 1221 56 bitbang.c:457 bitbang_swd_read_reg(): bitbang_swd_read_reg
Debug: 1222 56 bitbang.c:394 bitbang_swd_exchange(): bitbang_swd_exchange
Debug: 1223 56 bitbang.c:394 bitbang_swd_exchange(): bitbang_swd_exchange
Debug: 1224 56 bitbang.c:479 bitbang_swd_read_reg(): OK AP read reg C = 0060003f
Debug: 1225 57 bitbang.c:394 bitbang_swd_exchange(): bitbang_swd_exchange
Debug: 1226 57 bitbang.c:457 bitbang_swd_read_reg(): bitbang_swd_read_reg
Debug: 1227 57 bitbang.c:394 bitbang_swd_exchange(): bitbang_swd_exchange
Debug: 1228 57 bitbang.c:394 bitbang_swd_exchange(): bitbang_swd_exchange
Debug: 1229 57 bitbang.c:479 bitbang_swd_read_reg(): OK DP read reg C = 0060003f
Debug: 1230 57 bitbang.c:568 bitbang_swd_run_queue(): bitbang_swd_run_queue
Debug: 1231 57 bitbang.c:394 bitbang_swd_exchange(): bitbang_swd_exchange
Debug: 1232 57 bitbang.c:575 bitbang_swd_run_queue(): SWD queue return value: 00
Debug: 1233 57 command.c:146 script_debug(): command - stm32h7x.ap2 mww 3759017988 6291519
Debug: 1235 57 mem_ap.c:167 mem_ap_write_memory(): Writing memory at physical address 0xe00e1004; size 4; count 1
Debug: 1236 57 bitbang.c:516 bitbang_swd_write_reg(): bitbang_swd_write_reg
Debug: 1237 57 bitbang.c:394 bitbang_swd_exchange(): bitbang_swd_exchange
Debug: 1238 57 bitbang.c:394 bitbang_swd_exchange(): bitbang_swd_exchange
Debug: 1239 57 bitbang.c:394 bitbang_swd_exchange(): bitbang_swd_exchange
Debug: 1240 58 bitbang.c:538 bitbang_swd_write_reg(): OK AP write reg 4 = e00e1004
Debug: 1241 58 bitbang.c:394 bitbang_swd_exchange(): bitbang_swd_exchange
Debug: 1242 58 bitbang.c:516 bitbang_swd_write_reg(): bitbang_swd_write_reg
Debug: 1243 58 bitbang.c:394 bitbang_swd_exchange(): bitbang_swd_exchange
Debug: 1244 58 bitbang.c:394 bitbang_swd_exchange(): bitbang_swd_exchange
Debug: 1245 58 bitbang.c:394 bitbang_swd_exchange(): bitbang_swd_exchange
Debug: 1246 58 bitbang.c:538 bitbang_swd_write_reg(): OK AP write reg C = 0060003f
Debug: 1247 58 bitbang.c:394 bitbang_swd_exchange(): bitbang_swd_exchange
Debug: 1248 59 bitbang.c:568 bitbang_swd_run_queue(): bitbang_swd_run_queue
Debug: 1249 59 bitbang.c:394 bitbang_swd_exchange(): bitbang_swd_exchange
Debug: 1250 59 bitbang.c:575 bitbang_swd_run_queue(): SWD queue return value: 00
Debug: 1251 59 command.c:146 script_debug(): command - transport select
Debug: 1252 59 command.c:146 script_debug(): command - target current
Debug: 1253 59 command.c:146 script_debug(): command - stm32h7x.ap2 mem2array value 32 3759017988 1
Debug: 1254 59 mem_ap.c:152 mem_ap_read_memory(): Reading memory at physical address 0xe00e1004; size 4; count 1
Debug: 1255 59 bitbang.c:516 bitbang_swd_write_reg(): bitbang_swd_write_reg
Debug: 1256 59 bitbang.c:394 bitbang_swd_exchange(): bitbang_swd_exchange
Debug: 1257 59 bitbang.c:394 bitbang_swd_exchange(): bitbang_swd_exchange
Debug: 1258 59 bitbang.c:394 bitbang_swd_exchange(): bitbang_swd_exchange
Debug: 1259 59 bitbang.c:538 bitbang_swd_write_reg(): OK AP write reg 4 = e00e1004
Debug: 1260 59 bitbang.c:394 bitbang_swd_exchange(): bitbang_swd_exchange
Debug: 1261 59 bitbang.c:457 bitbang_swd_read_reg(): bitbang_swd_read_reg
Debug: 1262 59 bitbang.c:394 bitbang_swd_exchange(): bitbang_swd_exchange
Debug: 1263 59 bitbang.c:394 bitbang_swd_exchange(): bitbang_swd_exchange
Debug: 1264 60 bitbang.c:479 bitbang_swd_read_reg(): OK AP read reg C = 0060003f
Debug: 1265 60 bitbang.c:394 bitbang_swd_exchange(): bitbang_swd_exchange
Debug: 1266 60 bitbang.c:457 bitbang_swd_read_reg(): bitbang_swd_read_reg
Debug: 1267 60 bitbang.c:394 bitbang_swd_exchange(): bitbang_swd_exchange
Debug: 1268 60 bitbang.c:394 bitbang_swd_exchange(): bitbang_swd_exchange
Debug: 1269 60 bitbang.c:479 bitbang_swd_read_reg(): OK DP read reg C = 0060003f
Debug: 1270 60 bitbang.c:568 bitbang_swd_run_queue(): bitbang_swd_run_queue
Debug: 1271 60 bitbang.c:394 bitbang_swd_exchange(): bitbang_swd_exchange
Debug: 1272 60 bitbang.c:575 bitbang_swd_run_queue(): SWD queue return value: 00
Debug: 1273 60 command.c:146 script_debug(): command - stm32h7x.ap2 mww 3759017988 6291519
Debug: 1275 60 mem_ap.c:167 mem_ap_write_memory(): Writing memory at physical address 0xe00e1004; size 4; count 1
Debug: 1276 61 bitbang.c:516 bitbang_swd_write_reg(): bitbang_swd_write_reg
Debug: 1277 61 bitbang.c:394 bitbang_swd_exchange(): bitbang_swd_exchange
Debug: 1278 61 bitbang.c:394 bitbang_swd_exchange(): bitbang_swd_exchange
Debug: 1279 61 bitbang.c:394 bitbang_swd_exchange(): bitbang_swd_exchange
Debug: 1280 61 bitbang.c:538 bitbang_swd_write_reg(): OK AP write reg 4 = e00e1004
Debug: 1281 61 bitbang.c:394 bitbang_swd_exchange(): bitbang_swd_exchange
Debug: 1282 61 bitbang.c:516 bitbang_swd_write_reg(): bitbang_swd_write_reg
Debug: 1283 61 bitbang.c:394 bitbang_swd_exchange(): bitbang_swd_exchange
Debug: 1284 61 bitbang.c:394 bitbang_swd_exchange(): bitbang_swd_exchange
Debug: 1285 61 bitbang.c:394 bitbang_swd_exchange(): bitbang_swd_exchange
Debug: 1286 61 bitbang.c:538 bitbang_swd_write_reg(): OK AP write reg C = 0060003f
Debug: 1287 61 bitbang.c:394 bitbang_swd_exchange(): bitbang_swd_exchange
Debug: 1288 62 bitbang.c:568 bitbang_swd_run_queue(): bitbang_swd_run_queue
Debug: 1289 62 bitbang.c:394 bitbang_swd_exchange(): bitbang_swd_exchange
Debug: 1290 62 bitbang.c:575 bitbang_swd_run_queue(): SWD queue return value: 00
Debug: 1291 62 command.c:146 script_debug(): command - transport select
Debug: 1292 62 command.c:146 script_debug(): command - target current
Debug: 1293 62 command.c:146 script_debug(): command - stm32h7x.ap2 mem2array value 32 3759018036 1
Debug: 1294 62 mem_ap.c:152 mem_ap_read_memory(): Reading memory at physical address 0xe00e1034; size 4; count 1
Debug: 1295 62 bitbang.c:516 bitbang_swd_write_reg(): bitbang_swd_write_reg
Debug: 1296 62 bitbang.c:394 bitbang_swd_exchange(): bitbang_swd_exchange
Debug: 1297 62 bitbang.c:394 bitbang_swd_exchange(): bitbang_swd_exchange
Debug: 1298 62 bitbang.c:394 bitbang_swd_exchange(): bitbang_swd_exchange
Debug: 1299 62 bitbang.c:538 bitbang_swd_write_reg(): OK AP write reg 4 = e00e1034
Debug: 1300 62 bitbang.c:394 bitbang_swd_exchange(): bitbang_swd_exchange
Debug: 1301 63 bitbang.c:457 bitbang_swd_read_reg(): bitbang_swd_read_reg
Debug: 1302 63 bitbang.c:394 bitbang_swd_exchange(): bitbang_swd_exchange
Debug: 1303 63 bitbang.c:394 bitbang_swd_exchange(): bitbang_swd_exchange
Debug: 1304 63 bitbang.c:479 bitbang_swd_read_reg(): OK AP read reg C = 0060003f
Debug: 1305 63 bitbang.c:394 bitbang_swd_exchange(): bitbang_swd_exchange
Debug: 1306 63 bitbang.c:457 bitbang_swd_read_reg(): bitbang_swd_read_reg
Debug: 1307 63 bitbang.c:394 bitbang_swd_exchange(): bitbang_swd_exchange
Debug: 1308 63 bitbang.c:394 bitbang_swd_exchange(): bitbang_swd_exchange
Debug: 1309 63 bitbang.c:479 bitbang_swd_read_reg(): OK DP read reg C = 00000040
Debug: 1310 63 bitbang.c:568 bitbang_swd_run_queue(): bitbang_swd_run_queue
Debug: 1311 63 bitbang.c:394 bitbang_swd_exchange(): bitbang_swd_exchange
Debug: 1312 63 bitbang.c:575 bitbang_swd_run_queue(): SWD queue return value: 00
Debug: 1313 63 command.c:146 script_debug(): command - stm32h7x.ap2 mww 3759018036 64
Debug: 1315 64 mem_ap.c:167 mem_ap_write_memory(): Writing memory at physical address 0xe00e1034; size 4; count 1
Debug: 1316 64 bitbang.c:516 bitbang_swd_write_reg(): bitbang_swd_write_reg
Debug: 1317 64 bitbang.c:394 bitbang_swd_exchange(): bitbang_swd_exchange
Debug: 1318 64 bitbang.c:394 bitbang_swd_exchange(): bitbang_swd_exchange
Debug: 1319 64 bitbang.c:394 bitbang_swd_exchange(): bitbang_swd_exchange
Debug: 1320 64 bitbang.c:538 bitbang_swd_write_reg(): OK AP write reg 4 = e00e1034
Debug: 1321 64 bitbang.c:394 bitbang_swd_exchange(): bitbang_swd_exchange
Debug: 1322 64 bitbang.c:516 bitbang_swd_write_reg(): bitbang_swd_write_reg
Debug: 1323 64 bitbang.c:394 bitbang_swd_exchange(): bitbang_swd_exchange
Debug: 1324 64 bitbang.c:394 bitbang_swd_exchange(): bitbang_swd_exchange
Debug: 1325 64 bitbang.c:394 bitbang_swd_exchange(): bitbang_swd_exchange
Debug: 1326 64 bitbang.c:538 bitbang_swd_write_reg(): OK AP write reg C = 00000040
Debug: 1327 64 bitbang.c:394 bitbang_swd_exchange(): bitbang_swd_exchange
Debug: 1328 65 bitbang.c:568 bitbang_swd_run_queue(): bitbang_swd_run_queue
Debug: 1329 65 bitbang.c:394 bitbang_swd_exchange(): bitbang_swd_exchange
Debug: 1330 65 bitbang.c:575 bitbang_swd_run_queue(): SWD queue return value: 00
Debug: 1331 65 command.c:146 script_debug(): command - transport select
Debug: 1332 65 command.c:146 script_debug(): command - target current
Debug: 1333 65 command.c:146 script_debug(): command - stm32h7x.ap2 mem2array value 32 3759018044 1
Debug: 1334 65 mem_ap.c:152 mem_ap_read_memory(): Reading memory at physical address 0xe00e103c; size 4; count 1
Debug: 1335 65 bitbang.c:516 bitbang_swd_write_reg(): bitbang_swd_write_reg
Debug: 1336 65 bitbang.c:394 bitbang_swd_exchange(): bitbang_swd_exchange
Debug: 1337 65 bitbang.c:394 bitbang_swd_exchange(): bitbang_swd_exchange
Debug: 1338 65 bitbang.c:394 bitbang_swd_exchange(): bitbang_swd_exchange
Debug: 1339 65 bitbang.c:538 bitbang_swd_write_reg(): OK AP write reg 4 = e00e103c
Debug: 1340 65 bitbang.c:394 bitbang_swd_exchange(): bitbang_swd_exchange
Debug: 1341 66 bitbang.c:457 bitbang_swd_read_reg(): bitbang_swd_read_reg
Debug: 1342 66 bitbang.c:394 bitbang_swd_exchange(): bitbang_swd_exchange
Debug: 1343 66 bitbang.c:394 bitbang_swd_exchange(): bitbang_swd_exchange
Debug: 1344 66 bitbang.c:479 bitbang_swd_read_reg(): OK AP read reg C = 00000040
Debug: 1345 66 bitbang.c:394 bitbang_swd_exchange(): bitbang_swd_exchange
Debug: 1346 66 bitbang.c:457 bitbang_swd_read_reg(): bitbang_swd_read_reg
Debug: 1347 66 bitbang.c:394 bitbang_swd_exchange(): bitbang_swd_exchange
Debug: 1348 66 bitbang.c:394 bitbang_swd_exchange(): bitbang_swd_exchange
Debug: 1349 66 bitbang.c:479 bitbang_swd_read_reg(): OK DP read reg C = 00000800
Debug: 1350 66 bitbang.c:568 bitbang_swd_run_queue(): bitbang_swd_run_queue
Debug: 1351 66 bitbang.c:394 bitbang_swd_exchange(): bitbang_swd_exchange
Debug: 1352 66 bitbang.c:575 bitbang_swd_run_queue(): SWD queue return value: 00
Debug: 1353 67 command.c:146 script_debug(): command - stm32h7x.ap2 mww 3759018044 2048
Debug: 1355 67 mem_ap.c:167 mem_ap_write_memory(): Writing memory at physical address 0xe00e103c; size 4; count 1
Debug: 1356 67 bitbang.c:516 bitbang_swd_write_reg(): bitbang_swd_write_reg
Debug: 1357 67 bitbang.c:394 bitbang_swd_exchange(): bitbang_swd_exchange
Debug: 1358 67 bitbang.c:394 bitbang_swd_exchange(): bitbang_swd_exchange
Debug: 1359 67 bitbang.c:394 bitbang_swd_exchange(): bitbang_swd_exchange
Debug: 1360 67 bitbang.c:538 bitbang_swd_write_reg(): OK AP write reg 4 = e00e103c
Debug: 1361 67 bitbang.c:394 bitbang_swd_exchange(): bitbang_swd_exchange
Debug: 1362 67 bitbang.c:516 bitbang_swd_write_reg(): bitbang_swd_write_reg
Debug: 1363 67 bitbang.c:394 bitbang_swd_exchange(): bitbang_swd_exchange
Debug: 1364 67 bitbang.c:394 bitbang_swd_exchange(): bitbang_swd_exchange
Debug: 1365 67 bitbang.c:394 bitbang_swd_exchange(): bitbang_swd_exchange
Debug: 1366 67 bitbang.c:538 bitbang_swd_write_reg(): OK AP write reg C = 00000800
Debug: 1367 67 bitbang.c:394 bitbang_swd_exchange(): bitbang_swd_exchange
Debug: 1368 68 bitbang.c:568 bitbang_swd_run_queue(): bitbang_swd_run_queue
Debug: 1369 68 bitbang.c:394 bitbang_swd_exchange(): bitbang_swd_exchange
Debug: 1370 68 bitbang.c:575 bitbang_swd_run_queue(): SWD queue return value: 00
Debug: 1371 68 command.c:146 script_debug(): command - transport select
Debug: 1372 68 command.c:146 script_debug(): command - target current
Debug: 1373 68 command.c:146 script_debug(): command - stm32h7x.ap2 mem2array value 32 3759018068 1
Debug: 1374 68 mem_ap.c:152 mem_ap_read_memory(): Reading memory at physical address 0xe00e1054; size 4; count 1
Debug: 1375 68 bitbang.c:516 bitbang_swd_write_reg(): bitbang_swd_write_reg
Debug: 1376 68 bitbang.c:394 bitbang_swd_exchange(): bitbang_swd_exchange
Debug: 1377 68 bitbang.c:394 bitbang_swd_exchange(): bitbang_swd_exchange
Debug: 1378 68 bitbang.c:394 bitbang_swd_exchange(): bitbang_swd_exchange
Debug: 1379 68 bitbang.c:538 bitbang_swd_write_reg(): OK AP write reg 4 = e00e1054
Debug: 1380 68 bitbang.c:394 bitbang_swd_exchange(): bitbang_swd_exchange
Debug: 1381 69 bitbang.c:457 bitbang_swd_read_reg(): bitbang_swd_read_reg
Debug: 1382 69 bitbang.c:394 bitbang_swd_exchange(): bitbang_swd_exchange
Debug: 1383 69 bitbang.c:394 bitbang_swd_exchange(): bitbang_swd_exchange
Debug: 1384 69 bitbang.c:479 bitbang_swd_read_reg(): OK AP read reg C = 00000800
Debug: 1385 69 bitbang.c:394 bitbang_swd_exchange(): bitbang_swd_exchange
Debug: 1386 69 bitbang.c:457 bitbang_swd_read_reg(): bitbang_swd_read_reg
Debug: 1387 69 bitbang.c:394 bitbang_swd_exchange(): bitbang_swd_exchange
Debug: 1388 69 bitbang.c:394 bitbang_swd_exchange(): bitbang_swd_exchange
Debug: 1389 70 bitbang.c:479 bitbang_swd_read_reg(): OK DP read reg C = 000c0000
Debug: 1390 70 bitbang.c:568 bitbang_swd_run_queue(): bitbang_swd_run_queue
Debug: 1391 70 bitbang.c:394 bitbang_swd_exchange(): bitbang_swd_exchange
Debug: 1392 70 bitbang.c:575 bitbang_swd_run_queue(): SWD queue return value: 00
Debug: 1393 70 command.c:146 script_debug(): command - stm32h7x.ap2 mww 3759018068 786432
Debug: 1395 70 mem_ap.c:167 mem_ap_write_memory(): Writing memory at physical address 0xe00e1054; size 4; count 1
Debug: 1396 70 bitbang.c:516 bitbang_swd_write_reg(): bitbang_swd_write_reg
Debug: 1397 70 bitbang.c:394 bitbang_swd_exchange(): bitbang_swd_exchange
Debug: 1398 70 bitbang.c:394 bitbang_swd_exchange(): bitbang_swd_exchange
Debug: 1399 70 bitbang.c:394 bitbang_swd_exchange(): bitbang_swd_exchange
Debug: 1400 70 bitbang.c:538 bitbang_swd_write_reg(): OK AP write reg 4 = e00e1054
Debug: 1401 70 bitbang.c:394 bitbang_swd_exchange(): bitbang_swd_exchange
Debug: 1402 70 bitbang.c:516 bitbang_swd_write_reg(): bitbang_swd_write_reg
Debug: 1403 70 bitbang.c:394 bitbang_swd_exchange(): bitbang_swd_exchange
Debug: 1404 70 bitbang.c:394 bitbang_swd_exchange(): bitbang_swd_exchange
Debug: 1405 70 bitbang.c:394 bitbang_swd_exchange(): bitbang_swd_exchange
Debug: 1406 71 bitbang.c:538 bitbang_swd_write_reg(): OK AP write reg C = 000c0000
Debug: 1407 71 bitbang.c:394 bitbang_swd_exchange(): bitbang_swd_exchange
Debug: 1408 71 bitbang.c:568 bitbang_swd_run_queue(): bitbang_swd_run_queue
Debug: 1409 71 bitbang.c:394 bitbang_swd_exchange(): bitbang_swd_exchange
Debug: 1410 71 bitbang.c:575 bitbang_swd_run_queue(): SWD queue return value: 00
Debug: 1411 71 command.c:146 script_debug(): command - stm32h7x.ap2 invoke-event reset-assert-pre
Debug: 1412 71 command.c:146 script_debug(): command - stm32h7x.cpu0 invoke-event reset-assert-pre
Debug: 1413 71 command.c:146 script_debug(): command - transport select
Debug: 1414 71 command.c:146 script_debug(): command - stm32h7x.ap2 arp_reset assert 1
Debug: 1415 71 target.c:2172 target_free_all_working_areas_restore(): freeing all working areas
Debug: 1416 71 mem_ap.c:118 mem_ap_assert_reset(): mem_ap_assert_reset
Debug: 1417 71 command.c:146 script_debug(): command - transport select
Debug: 1418 71 command.c:146 script_debug(): command - stm32h7x.cpu0 arp_reset assert 1
Debug: 1419 71 target.c:2172 target_free_all_working_areas_restore(): freeing all working areas
Debug: 1420 71 cortex_m.c:1093 cortex_m_assert_reset(): target->state: halted
Debug: 1421 71 core.c:636 adapter_system_reset(): SRST line asserted
Debug: 1422 71 bitbang.c:516 bitbang_swd_write_reg(): bitbang_swd_write_reg
Debug: 1423 71 bitbang.c:394 bitbang_swd_exchange(): bitbang_swd_exchange
Debug: 1424 71 bitbang.c:394 bitbang_swd_exchange(): bitbang_swd_exchange
Debug: 1425 71 bitbang.c:394 bitbang_swd_exchange(): bitbang_swd_exchange
Debug: 1426 71 bitbang.c:538 bitbang_swd_write_reg(): OK DP write reg 8 = 00000000
Debug: 1427 71 bitbang.c:516 bitbang_swd_write_reg(): bitbang_swd_write_reg
Debug: 1428 71 bitbang.c:394 bitbang_swd_exchange(): bitbang_swd_exchange
Debug: 1429 72 bitbang.c:394 bitbang_swd_exchange(): bitbang_swd_exchange
Debug: 1430 72 bitbang.c:394 bitbang_swd_exchange(): bitbang_swd_exchange
Debug: 1431 72 bitbang.c:538 bitbang_swd_write_reg(): OK AP write reg 0 = aa000022
Debug: 1432 72 bitbang.c:394 bitbang_swd_exchange(): bitbang_swd_exchange
Debug: 1433 72 bitbang.c:516 bitbang_swd_write_reg(): bitbang_swd_write_reg
Debug: 1434 72 bitbang.c:394 bitbang_swd_exchange(): bitbang_swd_exchange
Debug: 1435 72 bitbang.c:394 bitbang_swd_exchange(): bitbang_swd_exchange
Debug: 1436 72 bitbang.c:394 bitbang_swd_exchange(): bitbang_swd_exchange
Debug: 1437 72 bitbang.c:538 bitbang_swd_write_reg(): OK AP write reg 4 = e000edf0
Debug: 1438 72 bitbang.c:394 bitbang_swd_exchange(): bitbang_swd_exchange
Debug: 1439 72 bitbang.c:516 bitbang_swd_write_reg(): bitbang_swd_write_reg
Debug: 1440 72 bitbang.c:394 bitbang_swd_exchange(): bitbang_swd_exchange
Debug: 1441 72 bitbang.c:394 bitbang_swd_exchange(): bitbang_swd_exchange
Debug: 1442 72 bitbang.c:394 bitbang_swd_exchange(): bitbang_swd_exchange
Debug: 1443 72 bitbang.c:538 bitbang_swd_write_reg(): OK DP write reg 8 = 00000010
Debug: 1444 72 bitbang.c:457 bitbang_swd_read_reg(): bitbang_swd_read_reg
Debug: 1445 72 bitbang.c:394 bitbang_swd_exchange(): bitbang_swd_exchange
Debug: 1446 72 bitbang.c:394 bitbang_swd_exchange(): bitbang_swd_exchange
Debug: 1447 72 bitbang.c:479 bitbang_swd_read_reg(): OK AP read reg 0 = 000c0000
Debug: 1448 72 bitbang.c:394 bitbang_swd_exchange(): bitbang_swd_exchange
Debug: 1449 72 bitbang.c:457 bitbang_swd_read_reg(): bitbang_swd_read_reg
Debug: 1450 72 bitbang.c:394 bitbang_swd_exchange(): bitbang_swd_exchange
Debug: 1451 72 bitbang.c:394 bitbang_swd_exchange(): bitbang_swd_exchange
Debug: 1452 72 bitbang.c:479 bitbang_swd_read_reg(): OK DP read reg C = 02010001
Debug: 1453 72 bitbang.c:568 bitbang_swd_run_queue(): bitbang_swd_run_queue
Debug: 1454 72 bitbang.c:394 bitbang_swd_exchange(): bitbang_swd_exchange
Debug: 1455 72 bitbang.c:575 bitbang_swd_run_queue(): SWD queue return value: 00
Debug: 1456 72 bitbang.c:516 bitbang_swd_write_reg(): bitbang_swd_write_reg
Debug: 1457 72 bitbang.c:394 bitbang_swd_exchange(): bitbang_swd_exchange
Debug: 1458 72 bitbang.c:394 bitbang_swd_exchange(): bitbang_swd_exchange
Debug: 1459 72 bitbang.c:394 bitbang_swd_exchange(): bitbang_swd_exchange
Debug: 1460 72 bitbang.c:538 bitbang_swd_write_reg(): OK AP write reg 8 = 00000000
Debug: 1461 72 bitbang.c:394 bitbang_swd_exchange(): bitbang_swd_exchange
Debug: 1462 72 bitbang.c:516 bitbang_swd_write_reg(): bitbang_swd_write_reg
Debug: 1463 72 bitbang.c:394 bitbang_swd_exchange(): bitbang_swd_exchange
Debug: 1464 72 bitbang.c:394 bitbang_swd_exchange(): bitbang_swd_exchange
Debug: 1465 73 bitbang.c:394 bitbang_swd_exchange(): bitbang_swd_exchange
Debug: 1466 73 bitbang.c:538 bitbang_swd_write_reg(): OK AP write reg C = 01000501
Debug: 1467 73 bitbang.c:394 bitbang_swd_exchange(): bitbang_swd_exchange
Debug: 1468 73 bitbang.c:568 bitbang_swd_run_queue(): bitbang_swd_run_queue
Debug: 1469 73 bitbang.c:394 bitbang_swd_exchange(): bitbang_swd_exchange
Debug: 1470 73 bitbang.c:575 bitbang_swd_run_queue(): SWD queue return value: 00
Debug: 1471 125 cortex_m.c:681 cortex_m_halt(): target->state: reset
Debug: 1472 125 command.c:146 script_debug(): command - stm32h7x.ap2 invoke-event reset-assert-post
Debug: 1473 125 command.c:146 script_debug(): command - stm32h7x.cpu0 invoke-event reset-assert-post
Debug: 1474 125 command.c:146 script_debug(): command - stm32h7x.ap2 invoke-event reset-deassert-pre
Debug: 1475 125 command.c:146 script_debug(): command - stm32h7x.cpu0 invoke-event reset-deassert-pre
Debug: 1476 125 command.c:146 script_debug(): command - transport select
Debug: 1477 125 command.c:146 script_debug(): command - stm32h7x.ap2 arp_reset deassert 1
Debug: 1478 125 target.c:2172 target_free_all_working_areas_restore(): freeing all working areas
Debug: 1479 125 mem_ap.c:143 mem_ap_deassert_reset(): mem_ap_deassert_reset
Debug: 1480 125 command.c:146 script_debug(): command - transport select
Debug: 1481 125 command.c:146 script_debug(): command - stm32h7x.cpu0 arp_reset deassert 1
Debug: 1482 125 target.c:2172 target_free_all_working_areas_restore(): freeing all working areas
Debug: 1483 125 cortex_m.c:1244 cortex_m_deassert_reset(): target->state: reset
Debug: 1484 125 core.c:640 adapter_system_reset(): SRST line released
Debug: 1485 230 command.c:146 script_debug(): command - stm32h7x.ap2 invoke-event reset-deassert-post
Debug: 1486 230 command.c:146 script_debug(): command - stm32h7x.cpu0 invoke-event reset-deassert-post
Debug: 1487 230 command.c:146 script_debug(): command - transport select
Debug: 1488 230 command.c:146 script_debug(): command - stm32h7x.ap2 was_examined
Debug: 1489 230 command.c:146 script_debug(): command - stm32h7x.ap2 arp_waitstate halted 1000
Debug: 1490 230 command.c:146 script_debug(): command - stm32h7x.ap2 curstate
Debug: 1491 230 command.c:146 script_debug(): command - transport select
Debug: 1492 230 command.c:146 script_debug(): command - stm32h7x.cpu0 was_examined
Debug: 1493 230 command.c:146 script_debug(): command - stm32h7x.cpu0 arp_waitstate halted 1000
Debug: 1494 230 bitbang.c:457 bitbang_swd_read_reg(): bitbang_swd_read_reg
Debug: 1495 230 bitbang.c:394 bitbang_swd_exchange(): bitbang_swd_exchange
Debug: 1496 230 bitbang.c:394 bitbang_swd_exchange(): bitbang_swd_exchange
Debug: 1497 231 bitbang.c:479 bitbang_swd_read_reg(): OK AP read reg 0 = 02010001
Debug: 1498 231 bitbang.c:394 bitbang_swd_exchange(): bitbang_swd_exchange
Debug: 1499 231 bitbang.c:457 bitbang_swd_read_reg(): bitbang_swd_read_reg
Debug: 1500 231 bitbang.c:394 bitbang_swd_exchange(): bitbang_swd_exchange
Debug: 1501 231 bitbang.c:394 bitbang_swd_exchange(): bitbang_swd_exchange
Debug: 1502 231 bitbang.c:479 bitbang_swd_read_reg(): OK DP read reg C = 02030003
Debug: 1503 231 bitbang.c:568 bitbang_swd_run_queue(): bitbang_swd_run_queue
Debug: 1504 231 bitbang.c:394 bitbang_swd_exchange(): bitbang_swd_exchange
Debug: 1505 231 bitbang.c:575 bitbang_swd_run_queue(): SWD queue return value: 00
Debug: 1506 231 target.c:3241 target_wait_state(): waiting for target halted...
Debug: 1507 231 bitbang.c:457 bitbang_swd_read_reg(): bitbang_swd_read_reg
Debug: 1508 231 bitbang.c:394 bitbang_swd_exchange(): bitbang_swd_exchange
Debug: 1509 231 bitbang.c:394 bitbang_swd_exchange(): bitbang_swd_exchange
Debug: 1510 231 bitbang.c:479 bitbang_swd_read_reg(): OK AP read reg 0 = 02030003
Debug: 1511 231 bitbang.c:394 bitbang_swd_exchange(): bitbang_swd_exchange
Debug: 1512 231 bitbang.c:457 bitbang_swd_read_reg(): bitbang_swd_read_reg
Debug: 1513 231 bitbang.c:394 bitbang_swd_exchange(): bitbang_swd_exchange
Debug: 1514 231 bitbang.c:394 bitbang_swd_exchange(): bitbang_swd_exchange
Debug: 1515 231 bitbang.c:479 bitbang_swd_read_reg(): OK DP read reg C = 00030003
Debug: 1516 231 bitbang.c:568 bitbang_swd_run_queue(): bitbang_swd_run_queue
Debug: 1517 231 bitbang.c:394 bitbang_swd_exchange(): bitbang_swd_exchange
Debug: 1518 231 bitbang.c:575 bitbang_swd_run_queue(): SWD queue return value: 00
Debug: 1519 231 cortex_m.c:620 cortex_m_poll(): Exit from reset with dcb_dhcsr 0x30003
Debug: 1520 231 bitbang.c:457 bitbang_swd_read_reg(): bitbang_swd_read_reg
Debug: 1521 231 bitbang.c:394 bitbang_swd_exchange(): bitbang_swd_exchange
Debug: 1522 231 bitbang.c:394 bitbang_swd_exchange(): bitbang_swd_exchange
Debug: 1523 231 bitbang.c:479 bitbang_swd_read_reg(): OK AP read reg C = 00030003
Debug: 1524 231 bitbang.c:394 bitbang_swd_exchange(): bitbang_swd_exchange
Debug: 1525 231 bitbang.c:457 bitbang_swd_read_reg(): bitbang_swd_read_reg
Debug: 1526 231 bitbang.c:394 bitbang_swd_exchange(): bitbang_swd_exchange
Debug: 1527 231 bitbang.c:394 bitbang_swd_exchange(): bitbang_swd_exchange
Debug: 1528 232 bitbang.c:479 bitbang_swd_read_reg(): OK DP read reg C = 01000501
Debug: 1529 232 bitbang.c:568 bitbang_swd_run_queue(): bitbang_swd_run_queue
Debug: 1530 232 bitbang.c:394 bitbang_swd_exchange(): bitbang_swd_exchange
Debug: 1531 232 bitbang.c:575 bitbang_swd_run_queue(): SWD queue return value: 00
Debug: 1532 232 cortex_m.c:301 cortex_m_endreset_event(): DCB_DEMCR = 0x01000501
Debug: 1533 232 bitbang.c:516 bitbang_swd_write_reg(): bitbang_swd_write_reg
Debug: 1534 232 bitbang.c:394 bitbang_swd_exchange(): bitbang_swd_exchange
Debug: 1535 232 bitbang.c:394 bitbang_swd_exchange(): bitbang_swd_exchange
Debug: 1536 232 bitbang.c:394 bitbang_swd_exchange(): bitbang_swd_exchange
Debug: 1537 232 bitbang.c:538 bitbang_swd_write_reg(): OK AP write reg 8 = 00000000
Debug: 1538 232 bitbang.c:394 bitbang_swd_exchange(): bitbang_swd_exchange
Debug: 1539 232 bitbang.c:457 bitbang_swd_read_reg(): bitbang_swd_read_reg
Debug: 1540 232 bitbang.c:394 bitbang_swd_exchange(): bitbang_swd_exchange
Debug: 1541 232 bitbang.c:394 bitbang_swd_exchange(): bitbang_swd_exchange
Debug: 1542 232 bitbang.c:479 bitbang_swd_read_reg(): OK AP read reg 0 = 01000501
Debug: 1543 232 bitbang.c:394 bitbang_swd_exchange(): bitbang_swd_exchange
Debug: 1544 232 bitbang.c:457 bitbang_swd_read_reg(): bitbang_swd_read_reg
Debug: 1545 232 bitbang.c:394 bitbang_swd_exchange(): bitbang_swd_exchange
Debug: 1546 232 bitbang.c:394 bitbang_swd_exchange(): bitbang_swd_exchange
Debug: 1547 232 bitbang.c:479 bitbang_swd_read_reg(): OK DP read reg C = 00030003
Debug: 1548 232 bitbang.c:568 bitbang_swd_run_queue(): bitbang_swd_run_queue
Debug: 1549 232 bitbang.c:394 bitbang_swd_exchange(): bitbang_swd_exchange
Debug: 1550 232 bitbang.c:575 bitbang_swd_run_queue(): SWD queue return value: 00
Debug: 1551 232 bitbang.c:516 bitbang_swd_write_reg(): bitbang_swd_write_reg
Debug: 1552 232 bitbang.c:394 bitbang_swd_exchange(): bitbang_swd_exchange
Debug: 1553 232 bitbang.c:394 bitbang_swd_exchange(): bitbang_swd_exchange
Debug: 1554 232 bitbang.c:394 bitbang_swd_exchange(): bitbang_swd_exchange
Debug: 1555 232 bitbang.c:538 bitbang_swd_write_reg(): OK AP write reg C = 01000000
Debug: 1556 232 bitbang.c:394 bitbang_swd_exchange(): bitbang_swd_exchange
Debug: 1557 232 target.c:2675 target_write_u32(): address: 0xe0002000, value: 0x00000003
Debug: 1558 232 bitbang.c:516 bitbang_swd_write_reg(): bitbang_swd_write_reg
Debug: 1559 232 bitbang.c:394 bitbang_swd_exchange(): bitbang_swd_exchange
Debug: 1560 232 bitbang.c:394 bitbang_swd_exchange(): bitbang_swd_exchange
Debug: 1561 232 bitbang.c:394 bitbang_swd_exchange(): bitbang_swd_exchange
Debug: 1562 233 bitbang.c:538 bitbang_swd_write_reg(): OK DP write reg 8 = 00000000
Debug: 1563 233 bitbang.c:516 bitbang_swd_write_reg(): bitbang_swd_write_reg
Debug: 1564 233 bitbang.c:394 bitbang_swd_exchange(): bitbang_swd_exchange
Debug: 1565 233 bitbang.c:394 bitbang_swd_exchange(): bitbang_swd_exchange
Debug: 1566 233 bitbang.c:394 bitbang_swd_exchange(): bitbang_swd_exchange
Debug: 1567 233 bitbang.c:538 bitbang_swd_write_reg(): OK AP write reg 4 = e0002000
Debug: 1568 233 bitbang.c:394 bitbang_swd_exchange(): bitbang_swd_exchange
Debug: 1569 233 bitbang.c:516 bitbang_swd_write_reg(): bitbang_swd_write_reg
Debug: 1570 233 bitbang.c:394 bitbang_swd_exchange(): bitbang_swd_exchange
Debug: 1571 233 bitbang.c:394 bitbang_swd_exchange(): bitbang_swd_exchange
Debug: 1572 233 bitbang.c:394 bitbang_swd_exchange(): bitbang_swd_exchange
Debug: 1573 233 bitbang.c:538 bitbang_swd_write_reg(): OK AP write reg C = 00000003
Debug: 1574 233 bitbang.c:394 bitbang_swd_exchange(): bitbang_swd_exchange
Debug: 1575 233 bitbang.c:568 bitbang_swd_run_queue(): bitbang_swd_run_queue
Debug: 1576 233 bitbang.c:394 bitbang_swd_exchange(): bitbang_swd_exchange
Debug: 1577 233 bitbang.c:575 bitbang_swd_run_queue(): SWD queue return value: 00
Debug: 1578 233 bitbang.c:516 bitbang_swd_write_reg(): bitbang_swd_write_reg
Debug: 1579 233 bitbang.c:394 bitbang_swd_exchange(): bitbang_swd_exchange
Debug: 1580 233 bitbang.c:394 bitbang_swd_exchange(): bitbang_swd_exchange
Debug: 1581 233 bitbang.c:394 bitbang_swd_exchange(): bitbang_swd_exchange
Debug: 1582 233 bitbang.c:538 bitbang_swd_write_reg(): OK AP write reg 4 = e0002000
Debug: 1583 233 bitbang.c:394 bitbang_swd_exchange(): bitbang_swd_exchange
Debug: 1584 233 bitbang.c:457 bitbang_swd_read_reg(): bitbang_swd_read_reg
Debug: 1585 233 bitbang.c:394 bitbang_swd_exchange(): bitbang_swd_exchange
Debug: 1586 233 bitbang.c:394 bitbang_swd_exchange(): bitbang_swd_exchange
Debug: 1587 233 bitbang.c:479 bitbang_swd_read_reg(): OK AP read reg C = 00030003
Debug: 1588 233 bitbang.c:394 bitbang_swd_exchange(): bitbang_swd_exchange
Debug: 1589 233 bitbang.c:457 bitbang_swd_read_reg(): bitbang_swd_read_reg
Debug: 1590 233 bitbang.c:394 bitbang_swd_exchange(): bitbang_swd_exchange
Debug: 1591 233 bitbang.c:394 bitbang_swd_exchange(): bitbang_swd_exchange
Debug: 1592 234 bitbang.c:479 bitbang_swd_read_reg(): OK DP read reg C = 10000081
Debug: 1593 234 bitbang.c:568 bitbang_swd_run_queue(): bitbang_swd_run_queue
Debug: 1594 234 bitbang.c:394 bitbang_swd_exchange(): bitbang_swd_exchange
Debug: 1595 234 bitbang.c:575 bitbang_swd_run_queue(): SWD queue return value: 00
Debug: 1596 234 target.c:2587 target_read_u32(): address: 0xe0002000, value: 0x10000081
Debug: 1597 234 target.c:2675 target_write_u32(): address: 0xe0002008, value: 0x00000000
Debug: 1598 234 bitbang.c:516 bitbang_swd_write_reg(): bitbang_swd_write_reg
Debug: 1599 234 bitbang.c:394 bitbang_swd_exchange(): bitbang_swd_exchange
Debug: 1600 234 bitbang.c:394 bitbang_swd_exchange(): bitbang_swd_exchange
Debug: 1601 234 bitbang.c:394 bitbang_swd_exchange(): bitbang_swd_exchange
Debug: 1602 234 bitbang.c:538 bitbang_swd_write_reg(): OK AP write reg 4 = e0002008
Debug: 1603 234 bitbang.c:394 bitbang_swd_exchange(): bitbang_swd_exchange
Debug: 1604 234 bitbang.c:516 bitbang_swd_write_reg(): bitbang_swd_write_reg
Debug: 1605 234 bitbang.c:394 bitbang_swd_exchange(): bitbang_swd_exchange
Debug: 1606 234 bitbang.c:394 bitbang_swd_exchange(): bitbang_swd_exchange
Debug: 1607 234 bitbang.c:394 bitbang_swd_exchange(): bitbang_swd_exchange
Debug: 1608 234 bitbang.c:538 bitbang_swd_write_reg(): OK AP write reg C = 00000000
Debug: 1609 234 bitbang.c:394 bitbang_swd_exchange(): bitbang_swd_exchange
Debug: 1610 234 bitbang.c:568 bitbang_swd_run_queue(): bitbang_swd_run_queue
Debug: 1611 234 bitbang.c:394 bitbang_swd_exchange(): bitbang_swd_exchange
Debug: 1612 234 bitbang.c:575 bitbang_swd_run_queue(): SWD queue return value: 00
Debug: 1613 234 target.c:2675 target_write_u32(): address: 0xe000200c, value: 0x00000000
Debug: 1614 234 bitbang.c:516 bitbang_swd_write_reg(): bitbang_swd_write_reg
Debug: 1615 234 bitbang.c:394 bitbang_swd_exchange(): bitbang_swd_exchange
Debug: 1616 234 bitbang.c:394 bitbang_swd_exchange(): bitbang_swd_exchange
Debug: 1617 234 bitbang.c:394 bitbang_swd_exchange(): bitbang_swd_exchange
Debug: 1618 234 bitbang.c:538 bitbang_swd_write_reg(): OK AP write reg C = 00000000
Debug: 1619 234 bitbang.c:394 bitbang_swd_exchange(): bitbang_swd_exchange
Debug: 1620 234 bitbang.c:568 bitbang_swd_run_queue(): bitbang_swd_run_queue
Debug: 1621 234 bitbang.c:394 bitbang_swd_exchange(): bitbang_swd_exchange
Debug: 1622 234 bitbang.c:575 bitbang_swd_run_queue(): SWD queue return value: 00
Debug: 1623 234 target.c:2675 target_write_u32(): address: 0xe0002010, value: 0x00000000
Debug: 1624 234 bitbang.c:516 bitbang_swd_write_reg(): bitbang_swd_write_reg
Debug: 1625 234 bitbang.c:394 bitbang_swd_exchange(): bitbang_swd_exchange
Debug: 1626 234 bitbang.c:394 bitbang_swd_exchange(): bitbang_swd_exchange
Debug: 1627 234 bitbang.c:394 bitbang_swd_exchange(): bitbang_swd_exchange
Debug: 1628 235 bitbang.c:538 bitbang_swd_write_reg(): OK AP write reg C = 00000000
Debug: 1629 235 bitbang.c:394 bitbang_swd_exchange(): bitbang_swd_exchange
Debug: 1630 235 bitbang.c:568 bitbang_swd_run_queue(): bitbang_swd_run_queue
Debug: 1631 235 bitbang.c:394 bitbang_swd_exchange(): bitbang_swd_exchange
Debug: 1632 235 bitbang.c:575 bitbang_swd_run_queue(): SWD queue return value: 00
Debug: 1633 235 target.c:2675 target_write_u32(): address: 0xe0002014, value: 0x00000000
Debug: 1634 235 bitbang.c:516 bitbang_swd_write_reg(): bitbang_swd_write_reg
Debug: 1635 235 bitbang.c:394 bitbang_swd_exchange(): bitbang_swd_exchange
Debug: 1636 235 bitbang.c:394 bitbang_swd_exchange(): bitbang_swd_exchange
Debug: 1637 235 bitbang.c:394 bitbang_swd_exchange(): bitbang_swd_exchange
Debug: 1638 235 bitbang.c:538 bitbang_swd_write_reg(): OK AP write reg C = 00000000
Debug: 1639 235 bitbang.c:394 bitbang_swd_exchange(): bitbang_swd_exchange
Debug: 1640 235 bitbang.c:568 bitbang_swd_run_queue(): bitbang_swd_run_queue
Debug: 1641 235 bitbang.c:394 bitbang_swd_exchange(): bitbang_swd_exchange
Debug: 1642 235 bitbang.c:575 bitbang_swd_run_queue(): SWD queue return value: 00
Debug: 1643 235 target.c:2675 target_write_u32(): address: 0xe0002018, value: 0x00000000
Debug: 1644 235 bitbang.c:516 bitbang_swd_write_reg(): bitbang_swd_write_reg
Debug: 1645 235 bitbang.c:394 bitbang_swd_exchange(): bitbang_swd_exchange
Debug: 1646 235 bitbang.c:394 bitbang_swd_exchange(): bitbang_swd_exchange
Debug: 1647 235 bitbang.c:394 bitbang_swd_exchange(): bitbang_swd_exchange
Debug: 1648 235 bitbang.c:538 bitbang_swd_write_reg(): OK AP write reg C = 00000000
Debug: 1649 235 bitbang.c:394 bitbang_swd_exchange(): bitbang_swd_exchange
Debug: 1650 235 bitbang.c:568 bitbang_swd_run_queue(): bitbang_swd_run_queue
Debug: 1651 235 bitbang.c:394 bitbang_swd_exchange(): bitbang_swd_exchange
Debug: 1652 235 bitbang.c:575 bitbang_swd_run_queue(): SWD queue return value: 00
Debug: 1653 235 target.c:2675 target_write_u32(): address: 0xe000201c, value: 0x00000000
Debug: 1654 235 bitbang.c:516 bitbang_swd_write_reg(): bitbang_swd_write_reg
Debug: 1655 235 bitbang.c:394 bitbang_swd_exchange(): bitbang_swd_exchange
Debug: 1656 235 bitbang.c:394 bitbang_swd_exchange(): bitbang_swd_exchange
Debug: 1657 235 bitbang.c:394 bitbang_swd_exchange(): bitbang_swd_exchange
Debug: 1658 235 bitbang.c:538 bitbang_swd_write_reg(): OK AP write reg C = 00000000
Debug: 1659 235 bitbang.c:394 bitbang_swd_exchange(): bitbang_swd_exchange
Debug: 1660 235 bitbang.c:568 bitbang_swd_run_queue(): bitbang_swd_run_queue
Debug: 1661 235 bitbang.c:394 bitbang_swd_exchange(): bitbang_swd_exchange
Debug: 1662 235 bitbang.c:575 bitbang_swd_run_queue(): SWD queue return value: 00
Debug: 1663 235 target.c:2675 target_write_u32(): address: 0xe0002020, value: 0x00000000
Debug: 1664 235 bitbang.c:516 bitbang_swd_write_reg(): bitbang_swd_write_reg
Debug: 1665 235 bitbang.c:394 bitbang_swd_exchange(): bitbang_swd_exchange
Debug: 1666 235 bitbang.c:394 bitbang_swd_exchange(): bitbang_swd_exchange
Debug: 1667 235 bitbang.c:394 bitbang_swd_exchange(): bitbang_swd_exchange
Debug: 1668 236 bitbang.c:538 bitbang_swd_write_reg(): OK AP write reg C = 00000000
Debug: 1669 236 bitbang.c:394 bitbang_swd_exchange(): bitbang_swd_exchange
Debug: 1670 236 bitbang.c:568 bitbang_swd_run_queue(): bitbang_swd_run_queue
Debug: 1671 236 bitbang.c:394 bitbang_swd_exchange(): bitbang_swd_exchange
Debug: 1672 236 bitbang.c:575 bitbang_swd_run_queue(): SWD queue return value: 00
Debug: 1673 236 target.c:2675 target_write_u32(): address: 0xe0002024, value: 0x00000000
Debug: 1674 236 bitbang.c:516 bitbang_swd_write_reg(): bitbang_swd_write_reg
Debug: 1675 236 bitbang.c:394 bitbang_swd_exchange(): bitbang_swd_exchange
Debug: 1676 236 bitbang.c:394 bitbang_swd_exchange(): bitbang_swd_exchange
Debug: 1677 236 bitbang.c:394 bitbang_swd_exchange(): bitbang_swd_exchange
Debug: 1678 236 bitbang.c:538 bitbang_swd_write_reg(): OK AP write reg C = 00000000
Debug: 1679 236 bitbang.c:394 bitbang_swd_exchange(): bitbang_swd_exchange
Debug: 1680 236 bitbang.c:568 bitbang_swd_run_queue(): bitbang_swd_run_queue
Debug: 1681 236 bitbang.c:394 bitbang_swd_exchange(): bitbang_swd_exchange
Debug: 1682 236 bitbang.c:575 bitbang_swd_run_queue(): SWD queue return value: 00
Debug: 1683 236 target.c:2675 target_write_u32(): address: 0xe0001020, value: 0x00000000
Debug: 1684 236 bitbang.c:516 bitbang_swd_write_reg(): bitbang_swd_write_reg
Debug: 1685 236 bitbang.c:394 bitbang_swd_exchange(): bitbang_swd_exchange
Debug: 1686 236 bitbang.c:394 bitbang_swd_exchange(): bitbang_swd_exchange
Debug: 1687 236 bitbang.c:394 bitbang_swd_exchange(): bitbang_swd_exchange
Debug: 1688 236 bitbang.c:538 bitbang_swd_write_reg(): OK AP write reg 4 = e0001020
Debug: 1689 236 bitbang.c:394 bitbang_swd_exchange(): bitbang_swd_exchange
Debug: 1690 236 bitbang.c:516 bitbang_swd_write_reg(): bitbang_swd_write_reg
Debug: 1691 236 bitbang.c:394 bitbang_swd_exchange(): bitbang_swd_exchange
Debug: 1692 236 bitbang.c:394 bitbang_swd_exchange(): bitbang_swd_exchange
Debug: 1693 236 bitbang.c:394 bitbang_swd_exchange(): bitbang_swd_exchange
Debug: 1694 236 bitbang.c:538 bitbang_swd_write_reg(): OK AP write reg C = 00000000
Debug: 1695 236 bitbang.c:394 bitbang_swd_exchange(): bitbang_swd_exchange
Debug: 1696 236 bitbang.c:568 bitbang_swd_run_queue(): bitbang_swd_run_queue
Debug: 1697 236 bitbang.c:394 bitbang_swd_exchange(): bitbang_swd_exchange
Debug: 1698 236 bitbang.c:575 bitbang_swd_run_queue(): SWD queue return value: 00
Debug: 1699 236 target.c:2675 target_write_u32(): address: 0xe0001024, value: 0x00000000
Debug: 1700 236 bitbang.c:516 bitbang_swd_write_reg(): bitbang_swd_write_reg
Debug: 1701 236 bitbang.c:394 bitbang_swd_exchange(): bitbang_swd_exchange
Debug: 1702 236 bitbang.c:394 bitbang_swd_exchange(): bitbang_swd_exchange
Debug: 1703 236 bitbang.c:394 bitbang_swd_exchange(): bitbang_swd_exchange
Debug: 1704 236 bitbang.c:538 bitbang_swd_write_reg(): OK AP write reg C = 00000000
Debug: 1705 237 bitbang.c:394 bitbang_swd_exchange(): bitbang_swd_exchange
Debug: 1706 237 bitbang.c:568 bitbang_swd_run_queue(): bitbang_swd_run_queue
Debug: 1707 237 bitbang.c:394 bitbang_swd_exchange(): bitbang_swd_exchange
Debug: 1708 237 bitbang.c:575 bitbang_swd_run_queue(): SWD queue return value: 00
Debug: 1709 237 target.c:2675 target_write_u32(): address: 0xe0001028, value: 0x00000000
Debug: 1710 237 bitbang.c:516 bitbang_swd_write_reg(): bitbang_swd_write_reg
Debug: 1711 237 bitbang.c:394 bitbang_swd_exchange(): bitbang_swd_exchange
Debug: 1712 237 bitbang.c:394 bitbang_swd_exchange(): bitbang_swd_exchange
Debug: 1713 237 bitbang.c:394 bitbang_swd_exchange(): bitbang_swd_exchange
Debug: 1714 237 bitbang.c:538 bitbang_swd_write_reg(): OK AP write reg C = 00000000
Debug: 1715 237 bitbang.c:394 bitbang_swd_exchange(): bitbang_swd_exchange
Debug: 1716 237 bitbang.c:568 bitbang_swd_run_queue(): bitbang_swd_run_queue
Debug: 1717 237 bitbang.c:394 bitbang_swd_exchange(): bitbang_swd_exchange
Debug: 1718 237 bitbang.c:575 bitbang_swd_run_queue(): SWD queue return value: 00
Debug: 1719 237 target.c:2675 target_write_u32(): address: 0xe0001030, value: 0x00000000
Debug: 1720 237 bitbang.c:516 bitbang_swd_write_reg(): bitbang_swd_write_reg
Debug: 1721 237 bitbang.c:394 bitbang_swd_exchange(): bitbang_swd_exchange
Debug: 1722 237 bitbang.c:394 bitbang_swd_exchange(): bitbang_swd_exchange
Debug: 1723 237 bitbang.c:394 bitbang_swd_exchange(): bitbang_swd_exchange
Debug: 1724 237 bitbang.c:538 bitbang_swd_write_reg(): OK AP write reg 4 = e0001030
Debug: 1725 237 bitbang.c:394 bitbang_swd_exchange(): bitbang_swd_exchange
Debug: 1726 237 bitbang.c:516 bitbang_swd_write_reg(): bitbang_swd_write_reg
Debug: 1727 237 bitbang.c:394 bitbang_swd_exchange(): bitbang_swd_exchange
Debug: 1728 237 bitbang.c:394 bitbang_swd_exchange(): bitbang_swd_exchange
Debug: 1729 237 bitbang.c:394 bitbang_swd_exchange(): bitbang_swd_exchange
Debug: 1730 237 bitbang.c:538 bitbang_swd_write_reg(): OK AP write reg C = 00000000
Debug: 1731 237 bitbang.c:394 bitbang_swd_exchange(): bitbang_swd_exchange
Debug: 1732 237 bitbang.c:568 bitbang_swd_run_queue(): bitbang_swd_run_queue
Debug: 1733 237 bitbang.c:394 bitbang_swd_exchange(): bitbang_swd_exchange
Debug: 1734 237 bitbang.c:575 bitbang_swd_run_queue(): SWD queue return value: 00
Debug: 1735 237 target.c:2675 target_write_u32(): address: 0xe0001034, value: 0x00000000
Debug: 1736 237 bitbang.c:516 bitbang_swd_write_reg(): bitbang_swd_write_reg
Debug: 1737 237 bitbang.c:394 bitbang_swd_exchange(): bitbang_swd_exchange
Debug: 1738 237 bitbang.c:394 bitbang_swd_exchange(): bitbang_swd_exchange
Debug: 1739 237 bitbang.c:394 bitbang_swd_exchange(): bitbang_swd_exchange
Debug: 1740 237 bitbang.c:538 bitbang_swd_write_reg(): OK AP write reg C = 00000000
Debug: 1741 237 bitbang.c:394 bitbang_swd_exchange(): bitbang_swd_exchange
Debug: 1742 238 bitbang.c:568 bitbang_swd_run_queue(): bitbang_swd_run_queue
Debug: 1743 238 bitbang.c:394 bitbang_swd_exchange(): bitbang_swd_exchange
Debug: 1744 238 bitbang.c:575 bitbang_swd_run_queue(): SWD queue return value: 00
Debug: 1745 238 target.c:2675 target_write_u32(): address: 0xe0001038, value: 0x00000000
Debug: 1746 238 bitbang.c:516 bitbang_swd_write_reg(): bitbang_swd_write_reg
Debug: 1747 238 bitbang.c:394 bitbang_swd_exchange(): bitbang_swd_exchange
Debug: 1748 238 bitbang.c:394 bitbang_swd_exchange(): bitbang_swd_exchange
Debug: 1749 238 bitbang.c:394 bitbang_swd_exchange(): bitbang_swd_exchange
Debug: 1750 238 bitbang.c:538 bitbang_swd_write_reg(): OK AP write reg C = 00000000
Debug: 1751 238 bitbang.c:394 bitbang_swd_exchange(): bitbang_swd_exchange
Debug: 1752 238 bitbang.c:568 bitbang_swd_run_queue(): bitbang_swd_run_queue
Debug: 1753 238 bitbang.c:394 bitbang_swd_exchange(): bitbang_swd_exchange
Debug: 1754 238 bitbang.c:575 bitbang_swd_run_queue(): SWD queue return value: 00
Debug: 1755 238 target.c:2675 target_write_u32(): address: 0xe0001040, value: 0x00000000
Debug: 1756 238 bitbang.c:516 bitbang_swd_write_reg(): bitbang_swd_write_reg
Debug: 1757 238 bitbang.c:394 bitbang_swd_exchange(): bitbang_swd_exchange
Debug: 1758 238 bitbang.c:394 bitbang_swd_exchange(): bitbang_swd_exchange
Debug: 1759 238 bitbang.c:394 bitbang_swd_exchange(): bitbang_swd_exchange
Debug: 1760 238 bitbang.c:538 bitbang_swd_write_reg(): OK AP write reg 4 = e0001040
Debug: 1761 238 bitbang.c:394 bitbang_swd_exchange(): bitbang_swd_exchange
Debug: 1762 238 bitbang.c:516 bitbang_swd_write_reg(): bitbang_swd_write_reg
Debug: 1763 238 bitbang.c:394 bitbang_swd_exchange(): bitbang_swd_exchange
Debug: 1764 238 bitbang.c:394 bitbang_swd_exchange(): bitbang_swd_exchange
Debug: 1765 238 bitbang.c:394 bitbang_swd_exchange(): bitbang_swd_exchange
Debug: 1766 238 bitbang.c:538 bitbang_swd_write_reg(): OK AP write reg C = 00000000
Debug: 1767 238 bitbang.c:394 bitbang_swd_exchange(): bitbang_swd_exchange
Debug: 1768 238 bitbang.c:568 bitbang_swd_run_queue(): bitbang_swd_run_queue
Debug: 1769 238 bitbang.c:394 bitbang_swd_exchange(): bitbang_swd_exchange
Debug: 1770 238 bitbang.c:575 bitbang_swd_run_queue(): SWD queue return value: 00
Debug: 1771 238 target.c:2675 target_write_u32(): address: 0xe0001044, value: 0x00000000
Debug: 1772 238 bitbang.c:516 bitbang_swd_write_reg(): bitbang_swd_write_reg
Debug: 1773 238 bitbang.c:394 bitbang_swd_exchange(): bitbang_swd_exchange
Debug: 1774 238 bitbang.c:394 bitbang_swd_exchange(): bitbang_swd_exchange
Debug: 1775 238 bitbang.c:394 bitbang_swd_exchange(): bitbang_swd_exchange
Debug: 1776 238 bitbang.c:538 bitbang_swd_write_reg(): OK AP write reg C = 00000000
Debug: 1777 238 bitbang.c:394 bitbang_swd_exchange(): bitbang_swd_exchange
Debug: 1778 238 bitbang.c:568 bitbang_swd_run_queue(): bitbang_swd_run_queue
Debug: 1779 238 bitbang.c:394 bitbang_swd_exchange(): bitbang_swd_exchange
Debug: 1780 239 bitbang.c:575 bitbang_swd_run_queue(): SWD queue return value: 00
Debug: 1781 239 target.c:2675 target_write_u32(): address: 0xe0001048, value: 0x00000000
Debug: 1782 239 bitbang.c:516 bitbang_swd_write_reg(): bitbang_swd_write_reg
Debug: 1783 239 bitbang.c:394 bitbang_swd_exchange(): bitbang_swd_exchange
Debug: 1784 239 bitbang.c:394 bitbang_swd_exchange(): bitbang_swd_exchange
Debug: 1785 239 bitbang.c:394 bitbang_swd_exchange(): bitbang_swd_exchange
Debug: 1786 239 bitbang.c:538 bitbang_swd_write_reg(): OK AP write reg C = 00000000
Debug: 1787 239 bitbang.c:394 bitbang_swd_exchange(): bitbang_swd_exchange
Debug: 1788 239 bitbang.c:568 bitbang_swd_run_queue(): bitbang_swd_run_queue
Debug: 1789 239 bitbang.c:394 bitbang_swd_exchange(): bitbang_swd_exchange
Debug: 1790 239 bitbang.c:575 bitbang_swd_run_queue(): SWD queue return value: 00
Debug: 1791 239 target.c:2675 target_write_u32(): address: 0xe0001050, value: 0x00000000
Debug: 1792 239 bitbang.c:516 bitbang_swd_write_reg(): bitbang_swd_write_reg
Debug: 1793 239 bitbang.c:394 bitbang_swd_exchange(): bitbang_swd_exchange
Debug: 1794 239 bitbang.c:394 bitbang_swd_exchange(): bitbang_swd_exchange
Debug: 1795 239 bitbang.c:394 bitbang_swd_exchange(): bitbang_swd_exchange
Debug: 1796 239 bitbang.c:538 bitbang_swd_write_reg(): OK AP write reg 4 = e0001050
Debug: 1797 239 bitbang.c:394 bitbang_swd_exchange(): bitbang_swd_exchange
Debug: 1798 239 bitbang.c:516 bitbang_swd_write_reg(): bitbang_swd_write_reg
Debug: 1799 239 bitbang.c:394 bitbang_swd_exchange(): bitbang_swd_exchange
Debug: 1800 239 bitbang.c:394 bitbang_swd_exchange(): bitbang_swd_exchange
Debug: 1801 239 bitbang.c:394 bitbang_swd_exchange(): bitbang_swd_exchange
Debug: 1802 239 bitbang.c:538 bitbang_swd_write_reg(): OK AP write reg C = 00000000
Debug: 1803 239 bitbang.c:394 bitbang_swd_exchange(): bitbang_swd_exchange
Debug: 1804 239 bitbang.c:568 bitbang_swd_run_queue(): bitbang_swd_run_queue
Debug: 1805 239 bitbang.c:394 bitbang_swd_exchange(): bitbang_swd_exchange
Debug: 1806 239 bitbang.c:575 bitbang_swd_run_queue(): SWD queue return value: 00
Debug: 1807 239 target.c:2675 target_write_u32(): address: 0xe0001054, value: 0x00000000
Debug: 1808 239 bitbang.c:516 bitbang_swd_write_reg(): bitbang_swd_write_reg
Debug: 1809 239 bitbang.c:394 bitbang_swd_exchange(): bitbang_swd_exchange
Debug: 1810 239 bitbang.c:394 bitbang_swd_exchange(): bitbang_swd_exchange
Debug: 1811 239 bitbang.c:394 bitbang_swd_exchange(): bitbang_swd_exchange
Debug: 1812 239 bitbang.c:538 bitbang_swd_write_reg(): OK AP write reg C = 00000000
Debug: 1813 239 bitbang.c:394 bitbang_swd_exchange(): bitbang_swd_exchange
Debug: 1814 239 bitbang.c:568 bitbang_swd_run_queue(): bitbang_swd_run_queue
Debug: 1815 239 bitbang.c:394 bitbang_swd_exchange(): bitbang_swd_exchange
Debug: 1816 239 bitbang.c:575 bitbang_swd_run_queue(): SWD queue return value: 00
Debug: 1817 239 target.c:2675 target_write_u32(): address: 0xe0001058, value: 0x00000000
Debug: 1818 239 bitbang.c:516 bitbang_swd_write_reg(): bitbang_swd_write_reg
Debug: 1819 239 bitbang.c:394 bitbang_swd_exchange(): bitbang_swd_exchange
Debug: 1820 240 bitbang.c:394 bitbang_swd_exchange(): bitbang_swd_exchange
Debug: 1821 240 bitbang.c:394 bitbang_swd_exchange(): bitbang_swd_exchange
Debug: 1822 240 bitbang.c:538 bitbang_swd_write_reg(): OK AP write reg C = 00000000
Debug: 1823 240 bitbang.c:394 bitbang_swd_exchange(): bitbang_swd_exchange
Debug: 1824 240 bitbang.c:568 bitbang_swd_run_queue(): bitbang_swd_run_queue
Debug: 1825 240 bitbang.c:394 bitbang_swd_exchange(): bitbang_swd_exchange
Debug: 1826 240 bitbang.c:575 bitbang_swd_run_queue(): SWD queue return value: 00
Debug: 1827 240 bitbang.c:568 bitbang_swd_run_queue(): bitbang_swd_run_queue
Debug: 1828 240 bitbang.c:394 bitbang_swd_exchange(): bitbang_swd_exchange
Debug: 1829 240 bitbang.c:575 bitbang_swd_run_queue(): SWD queue return value: 00
Debug: 1830 240 bitbang.c:516 bitbang_swd_write_reg(): bitbang_swd_write_reg
Debug: 1831 240 bitbang.c:394 bitbang_swd_exchange(): bitbang_swd_exchange
Debug: 1832 240 bitbang.c:394 bitbang_swd_exchange(): bitbang_swd_exchange
Debug: 1833 240 bitbang.c:394 bitbang_swd_exchange(): bitbang_swd_exchange
Debug: 1834 240 bitbang.c:538 bitbang_swd_write_reg(): OK AP write reg 4 = e000edf0
Debug: 1835 240 bitbang.c:394 bitbang_swd_exchange(): bitbang_swd_exchange
Debug: 1836 240 bitbang.c:516 bitbang_swd_write_reg(): bitbang_swd_write_reg
Debug: 1837 240 bitbang.c:394 bitbang_swd_exchange(): bitbang_swd_exchange
Debug: 1838 240 bitbang.c:394 bitbang_swd_exchange(): bitbang_swd_exchange
Debug: 1839 240 bitbang.c:394 bitbang_swd_exchange(): bitbang_swd_exchange
Debug: 1840 241 bitbang.c:538 bitbang_swd_write_reg(): OK DP write reg 8 = 00000010
Debug: 1841 241 bitbang.c:457 bitbang_swd_read_reg(): bitbang_swd_read_reg
Debug: 1842 241 bitbang.c:394 bitbang_swd_exchange(): bitbang_swd_exchange
Debug: 1843 241 bitbang.c:394 bitbang_swd_exchange(): bitbang_swd_exchange
Debug: 1844 241 bitbang.c:479 bitbang_swd_read_reg(): OK AP read reg 0 = 10000081
Debug: 1845 241 bitbang.c:394 bitbang_swd_exchange(): bitbang_swd_exchange
Debug: 1846 241 bitbang.c:457 bitbang_swd_read_reg(): bitbang_swd_read_reg
Debug: 1847 241 bitbang.c:394 bitbang_swd_exchange(): bitbang_swd_exchange
Debug: 1848 241 bitbang.c:394 bitbang_swd_exchange(): bitbang_swd_exchange
Debug: 1849 241 bitbang.c:479 bitbang_swd_read_reg(): OK DP read reg C = 00030003
Debug: 1850 241 bitbang.c:568 bitbang_swd_run_queue(): bitbang_swd_run_queue
Debug: 1851 241 bitbang.c:394 bitbang_swd_exchange(): bitbang_swd_exchange
Debug: 1852 241 bitbang.c:575 bitbang_swd_run_queue(): SWD queue return value: 00
Debug: 1853 241 cortex_m.c:491 cortex_m_debug_entry():  
Debug: 1854 241 bitbang.c:516 bitbang_swd_write_reg(): bitbang_swd_write_reg
Debug: 1855 241 bitbang.c:394 bitbang_swd_exchange(): bitbang_swd_exchange
Debug: 1856 241 bitbang.c:394 bitbang_swd_exchange(): bitbang_swd_exchange
Debug: 1857 241 bitbang.c:394 bitbang_swd_exchange(): bitbang_swd_exchange
Debug: 1858 241 bitbang.c:538 bitbang_swd_write_reg(): OK AP write reg 0 = a05f0003
Debug: 1859 241 bitbang.c:394 bitbang_swd_exchange(): bitbang_swd_exchange
Debug: 1860 241 bitbang.c:568 bitbang_swd_run_queue(): bitbang_swd_run_queue
Debug: 1861 241 bitbang.c:394 bitbang_swd_exchange(): bitbang_swd_exchange
Debug: 1862 241 bitbang.c:575 bitbang_swd_run_queue(): SWD queue return value: 00
Debug: 1863 241 bitbang.c:516 bitbang_swd_write_reg(): bitbang_swd_write_reg
Debug: 1864 241 bitbang.c:394 bitbang_swd_exchange(): bitbang_swd_exchange
Debug: 1865 241 bitbang.c:394 bitbang_swd_exchange(): bitbang_swd_exchange
Debug: 1866 241 bitbang.c:394 bitbang_swd_exchange(): bitbang_swd_exchange
Debug: 1867 241 bitbang.c:538 bitbang_swd_write_reg(): OK DP write reg 8 = 00000000
Debug: 1868 241 bitbang.c:516 bitbang_swd_write_reg(): bitbang_swd_write_reg
Debug: 1869 241 bitbang.c:394 bitbang_swd_exchange(): bitbang_swd_exchange
Debug: 1870 241 bitbang.c:394 bitbang_swd_exchange(): bitbang_swd_exchange
Debug: 1871 241 bitbang.c:394 bitbang_swd_exchange(): bitbang_swd_exchange
Debug: 1872 241 bitbang.c:538 bitbang_swd_write_reg(): OK AP write reg 4 = e000ed30
Debug: 1873 241 bitbang.c:394 bitbang_swd_exchange(): bitbang_swd_exchange
Debug: 1874 241 bitbang.c:516 bitbang_swd_write_reg(): bitbang_swd_write_reg
Debug: 1875 241 bitbang.c:394 bitbang_swd_exchange(): bitbang_swd_exchange
Debug: 1876 241 bitbang.c:394 bitbang_swd_exchange(): bitbang_swd_exchange
Debug: 1877 241 bitbang.c:394 bitbang_swd_exchange(): bitbang_swd_exchange
Debug: 1878 242 bitbang.c:538 bitbang_swd_write_reg(): OK DP write reg 8 = 00000010
Debug: 1879 242 bitbang.c:457 bitbang_swd_read_reg(): bitbang_swd_read_reg
Debug: 1880 242 bitbang.c:394 bitbang_swd_exchange(): bitbang_swd_exchange
Debug: 1881 242 bitbang.c:394 bitbang_swd_exchange(): bitbang_swd_exchange
Debug: 1882 242 bitbang.c:479 bitbang_swd_read_reg(): OK AP read reg 0 = 00030003
Debug: 1883 242 bitbang.c:394 bitbang_swd_exchange(): bitbang_swd_exchange
Debug: 1884 242 bitbang.c:457 bitbang_swd_read_reg(): bitbang_swd_read_reg
Debug: 1885 242 bitbang.c:394 bitbang_swd_exchange(): bitbang_swd_exchange
Debug: 1886 242 bitbang.c:394 bitbang_swd_exchange(): bitbang_swd_exchange
Debug: 1887 242 bitbang.c:479 bitbang_swd_read_reg(): OK DP read reg C = 00000009
Debug: 1888 242 bitbang.c:568 bitbang_swd_run_queue(): bitbang_swd_run_queue
Debug: 1889 242 bitbang.c:394 bitbang_swd_exchange(): bitbang_swd_exchange
Debug: 1890 242 bitbang.c:575 bitbang_swd_run_queue(): SWD queue return value: 00
Debug: 1891 242 bitbang.c:516 bitbang_swd_write_reg(): bitbang_swd_write_reg
Debug: 1892 242 bitbang.c:394 bitbang_swd_exchange(): bitbang_swd_exchange
Debug: 1893 242 bitbang.c:394 bitbang_swd_exchange(): bitbang_swd_exchange
Debug: 1894 242 bitbang.c:394 bitbang_swd_exchange(): bitbang_swd_exchange
Debug: 1895 242 bitbang.c:538 bitbang_swd_write_reg(): OK AP write reg 0 = 00000009
Debug: 1896 242 bitbang.c:394 bitbang_swd_exchange(): bitbang_swd_exchange
Debug: 1897 242 bitbang.c:568 bitbang_swd_run_queue(): bitbang_swd_run_queue
Debug: 1898 242 bitbang.c:394 bitbang_swd_exchange(): bitbang_swd_exchange
Debug: 1899 242 bitbang.c:575 bitbang_swd_run_queue(): SWD queue return value: 00
Debug: 1900 242 cortex_m.c:235 cortex_m_clear_halt():  NVIC_DFSR 0x9
Debug: 1901 242 bitbang.c:516 bitbang_swd_write_reg(): bitbang_swd_write_reg
Debug: 1902 242 bitbang.c:394 bitbang_swd_exchange(): bitbang_swd_exchange
Debug: 1903 242 bitbang.c:394 bitbang_swd_exchange(): bitbang_swd_exchange
Debug: 1904 242 bitbang.c:394 bitbang_swd_exchange(): bitbang_swd_exchange
Debug: 1905 242 bitbang.c:538 bitbang_swd_write_reg(): OK DP write reg 8 = 00000000
Debug: 1906 242 bitbang.c:516 bitbang_swd_write_reg(): bitbang_swd_write_reg
Debug: 1907 242 bitbang.c:394 bitbang_swd_exchange(): bitbang_swd_exchange
Debug: 1908 242 bitbang.c:394 bitbang_swd_exchange(): bitbang_swd_exchange
Debug: 1909 242 bitbang.c:394 bitbang_swd_exchange(): bitbang_swd_exchange
Debug: 1910 242 bitbang.c:538 bitbang_swd_write_reg(): OK AP write reg 4 = e000edf0
Debug: 1911 242 bitbang.c:394 bitbang_swd_exchange(): bitbang_swd_exchange
Debug: 1912 242 bitbang.c:516 bitbang_swd_write_reg(): bitbang_swd_write_reg
Debug: 1913 242 bitbang.c:394 bitbang_swd_exchange(): bitbang_swd_exchange
Debug: 1914 242 bitbang.c:394 bitbang_swd_exchange(): bitbang_swd_exchange
Debug: 1915 242 bitbang.c:394 bitbang_swd_exchange(): bitbang_swd_exchange
Debug: 1916 242 bitbang.c:538 bitbang_swd_write_reg(): OK DP write reg 8 = 00000010
Debug: 1917 242 bitbang.c:457 bitbang_swd_read_reg(): bitbang_swd_read_reg
Debug: 1918 242 bitbang.c:394 bitbang_swd_exchange(): bitbang_swd_exchange
Debug: 1919 243 bitbang.c:394 bitbang_swd_exchange(): bitbang_swd_exchange
Debug: 1920 243 bitbang.c:479 bitbang_swd_read_reg(): OK AP read reg 0 = 00000009
Debug: 1921 243 bitbang.c:394 bitbang_swd_exchange(): bitbang_swd_exchange
Debug: 1922 243 bitbang.c:457 bitbang_swd_read_reg(): bitbang_swd_read_reg
Debug: 1923 243 bitbang.c:394 bitbang_swd_exchange(): bitbang_swd_exchange
Debug: 1924 243 bitbang.c:394 bitbang_swd_exchange(): bitbang_swd_exchange
Debug: 1925 243 bitbang.c:479 bitbang_swd_read_reg(): OK DP read reg C = 00030003
Debug: 1926 243 bitbang.c:568 bitbang_swd_run_queue(): bitbang_swd_run_queue
Debug: 1927 243 bitbang.c:394 bitbang_swd_exchange(): bitbang_swd_exchange
Debug: 1928 243 bitbang.c:575 bitbang_swd_run_queue(): SWD queue return value: 00
Debug: 1929 243 bitbang.c:516 bitbang_swd_write_reg(): bitbang_swd_write_reg
Debug: 1930 243 bitbang.c:394 bitbang_swd_exchange(): bitbang_swd_exchange
Debug: 1931 243 bitbang.c:394 bitbang_swd_exchange(): bitbang_swd_exchange
Debug: 1932 243 bitbang.c:394 bitbang_swd_exchange(): bitbang_swd_exchange
Debug: 1933 243 bitbang.c:538 bitbang_swd_write_reg(): OK AP write reg 4 = 00000000
Debug: 1934 243 bitbang.c:394 bitbang_swd_exchange(): bitbang_swd_exchange
Debug: 1935 243 bitbang.c:457 bitbang_swd_read_reg(): bitbang_swd_read_reg
Debug: 1936 243 bitbang.c:394 bitbang_swd_exchange(): bitbang_swd_exchange
Debug: 1937 243 bitbang.c:394 bitbang_swd_exchange(): bitbang_swd_exchange
Debug: 1938 243 bitbang.c:479 bitbang_swd_read_reg(): OK AP read reg 8 = 00030003
Debug: 1939 243 bitbang.c:394 bitbang_swd_exchange(): bitbang_swd_exchange
Debug: 1940 243 bitbang.c:457 bitbang_swd_read_reg(): bitbang_swd_read_reg
Debug: 1941 243 bitbang.c:394 bitbang_swd_exchange(): bitbang_swd_exchange
Debug: 1942 243 bitbang.c:394 bitbang_swd_exchange(): bitbang_swd_exchange
Debug: 1943 243 bitbang.c:479 bitbang_swd_read_reg(): OK DP read reg C = 00000000
Debug: 1944 243 bitbang.c:568 bitbang_swd_run_queue(): bitbang_swd_run_queue
Debug: 1945 243 bitbang.c:394 bitbang_swd_exchange(): bitbang_swd_exchange
Debug: 1946 243 bitbang.c:575 bitbang_swd_run_queue(): SWD queue return value: 00
Debug: 1947 243 armv7m.c:341 armv7m_read_core_reg(): read r0 value 0x00000000
Debug: 1948 243 bitbang.c:516 bitbang_swd_write_reg(): bitbang_swd_write_reg
Debug: 1949 243 bitbang.c:394 bitbang_swd_exchange(): bitbang_swd_exchange
Debug: 1950 243 bitbang.c:394 bitbang_swd_exchange(): bitbang_swd_exchange
Debug: 1951 243 bitbang.c:394 bitbang_swd_exchange(): bitbang_swd_exchange
Debug: 1952 243 bitbang.c:538 bitbang_swd_write_reg(): OK AP write reg 4 = 00000001
Debug: 1953 243 bitbang.c:394 bitbang_swd_exchange(): bitbang_swd_exchange
Debug: 1954 243 bitbang.c:457 bitbang_swd_read_reg(): bitbang_swd_read_reg
Debug: 1955 243 bitbang.c:394 bitbang_swd_exchange(): bitbang_swd_exchange
Debug: 1956 244 bitbang.c:394 bitbang_swd_exchange(): bitbang_swd_exchange
Debug: 1957 244 bitbang.c:479 bitbang_swd_read_reg(): OK AP read reg 8 = 00000000
Debug: 1958 244 bitbang.c:394 bitbang_swd_exchange(): bitbang_swd_exchange
Debug: 1959 244 bitbang.c:457 bitbang_swd_read_reg(): bitbang_swd_read_reg
Debug: 1960 244 bitbang.c:394 bitbang_swd_exchange(): bitbang_swd_exchange
Debug: 1961 244 bitbang.c:394 bitbang_swd_exchange(): bitbang_swd_exchange
Debug: 1962 244 bitbang.c:479 bitbang_swd_read_reg(): OK DP read reg C = 00000000
Debug: 1963 244 bitbang.c:568 bitbang_swd_run_queue(): bitbang_swd_run_queue
Debug: 1964 244 bitbang.c:394 bitbang_swd_exchange(): bitbang_swd_exchange
Debug: 1965 244 bitbang.c:575 bitbang_swd_run_queue(): SWD queue return value: 00
Debug: 1966 244 armv7m.c:341 armv7m_read_core_reg(): read r1 value 0x00000000
Debug: 1967 244 bitbang.c:516 bitbang_swd_write_reg(): bitbang_swd_write_reg
Debug: 1968 244 bitbang.c:394 bitbang_swd_exchange(): bitbang_swd_exchange
Debug: 1969 244 bitbang.c:394 bitbang_swd_exchange(): bitbang_swd_exchange
Debug: 1970 244 bitbang.c:394 bitbang_swd_exchange(): bitbang_swd_exchange
Debug: 1971 244 bitbang.c:538 bitbang_swd_write_reg(): OK AP write reg 4 = 00000002
Debug: 1972 244 bitbang.c:394 bitbang_swd_exchange(): bitbang_swd_exchange
Debug: 1973 244 bitbang.c:457 bitbang_swd_read_reg(): bitbang_swd_read_reg
Debug: 1974 244 bitbang.c:394 bitbang_swd_exchange(): bitbang_swd_exchange
Debug: 1975 244 bitbang.c:394 bitbang_swd_exchange(): bitbang_swd_exchange
Debug: 1976 244 bitbang.c:479 bitbang_swd_read_reg(): OK AP read reg 8 = 00000000
Debug: 1977 244 bitbang.c:394 bitbang_swd_exchange(): bitbang_swd_exchange
Debug: 1978 244 bitbang.c:457 bitbang_swd_read_reg(): bitbang_swd_read_reg
Debug: 1979 244 bitbang.c:394 bitbang_swd_exchange(): bitbang_swd_exchange
Debug: 1980 244 bitbang.c:394 bitbang_swd_exchange(): bitbang_swd_exchange
Debug: 1981 244 bitbang.c:479 bitbang_swd_read_reg(): OK DP read reg C = 00000000
Debug: 1982 244 bitbang.c:568 bitbang_swd_run_queue(): bitbang_swd_run_queue
Debug: 1983 244 bitbang.c:394 bitbang_swd_exchange(): bitbang_swd_exchange
Debug: 1984 244 bitbang.c:575 bitbang_swd_run_queue(): SWD queue return value: 00
Debug: 1985 244 armv7m.c:341 armv7m_read_core_reg(): read r2 value 0x00000000
Debug: 1986 244 bitbang.c:516 bitbang_swd_write_reg(): bitbang_swd_write_reg
Debug: 1987 244 bitbang.c:394 bitbang_swd_exchange(): bitbang_swd_exchange
Debug: 1988 244 bitbang.c:394 bitbang_swd_exchange(): bitbang_swd_exchange
Debug: 1989 244 bitbang.c:394 bitbang_swd_exchange(): bitbang_swd_exchange
Debug: 1990 245 bitbang.c:538 bitbang_swd_write_reg(): OK AP write reg 4 = 00000003
Debug: 1991 245 bitbang.c:394 bitbang_swd_exchange(): bitbang_swd_exchange
Debug: 1992 245 bitbang.c:457 bitbang_swd_read_reg(): bitbang_swd_read_reg
Debug: 1993 245 bitbang.c:394 bitbang_swd_exchange(): bitbang_swd_exchange
Debug: 1994 245 bitbang.c:394 bitbang_swd_exchange(): bitbang_swd_exchange
Debug: 1995 245 bitbang.c:479 bitbang_swd_read_reg(): OK AP read reg 8 = 00000000
Debug: 1996 245 bitbang.c:394 bitbang_swd_exchange(): bitbang_swd_exchange
Debug: 1997 245 bitbang.c:457 bitbang_swd_read_reg(): bitbang_swd_read_reg
Debug: 1998 245 bitbang.c:394 bitbang_swd_exchange(): bitbang_swd_exchange
Debug: 1999 245 bitbang.c:394 bitbang_swd_exchange(): bitbang_swd_exchange
Debug: 2000 245 bitbang.c:479 bitbang_swd_read_reg(): OK DP read reg C = 00000000
Debug: 2001 245 bitbang.c:568 bitbang_swd_run_queue(): bitbang_swd_run_queue
Debug: 2002 245 bitbang.c:394 bitbang_swd_exchange(): bitbang_swd_exchange
Debug: 2003 245 bitbang.c:575 bitbang_swd_run_queue(): SWD queue return value: 00
Debug: 2004 245 armv7m.c:341 armv7m_read_core_reg(): read r3 value 0x00000000
Debug: 2005 245 bitbang.c:516 bitbang_swd_write_reg(): bitbang_swd_write_reg
Debug: 2006 245 bitbang.c:394 bitbang_swd_exchange(): bitbang_swd_exchange
Debug: 2007 245 bitbang.c:394 bitbang_swd_exchange(): bitbang_swd_exchange
Debug: 2008 245 bitbang.c:394 bitbang_swd_exchange(): bitbang_swd_exchange
Debug: 2009 245 bitbang.c:538 bitbang_swd_write_reg(): OK AP write reg 4 = 00000004
Debug: 2010 245 bitbang.c:394 bitbang_swd_exchange(): bitbang_swd_exchange
Debug: 2011 245 bitbang.c:457 bitbang_swd_read_reg(): bitbang_swd_read_reg
Debug: 2012 245 bitbang.c:394 bitbang_swd_exchange(): bitbang_swd_exchange
Debug: 2013 245 bitbang.c:394 bitbang_swd_exchange(): bitbang_swd_exchange
Debug: 2014 245 bitbang.c:479 bitbang_swd_read_reg(): OK AP read reg 8 = 00000000
Debug: 2015 245 bitbang.c:394 bitbang_swd_exchange(): bitbang_swd_exchange
Debug: 2016 245 bitbang.c:457 bitbang_swd_read_reg(): bitbang_swd_read_reg
Debug: 2017 245 bitbang.c:394 bitbang_swd_exchange(): bitbang_swd_exchange
Debug: 2018 245 bitbang.c:394 bitbang_swd_exchange(): bitbang_swd_exchange
Debug: 2019 245 bitbang.c:479 bitbang_swd_read_reg(): OK DP read reg C = 00000000
Debug: 2020 245 bitbang.c:568 bitbang_swd_run_queue(): bitbang_swd_run_queue
Debug: 2021 245 bitbang.c:394 bitbang_swd_exchange(): bitbang_swd_exchange
Debug: 2022 245 bitbang.c:575 bitbang_swd_run_queue(): SWD queue return value: 00
Debug: 2023 245 armv7m.c:341 armv7m_read_core_reg(): read r4 value 0x00000000
Debug: 2024 245 bitbang.c:516 bitbang_swd_write_reg(): bitbang_swd_write_reg
Debug: 2025 245 bitbang.c:394 bitbang_swd_exchange(): bitbang_swd_exchange
Debug: 2026 245 bitbang.c:394 bitbang_swd_exchange(): bitbang_swd_exchange
Debug: 2027 245 bitbang.c:394 bitbang_swd_exchange(): bitbang_swd_exchange
Debug: 2028 245 bitbang.c:538 bitbang_swd_write_reg(): OK AP write reg 4 = 00000005
Debug: 2029 245 bitbang.c:394 bitbang_swd_exchange(): bitbang_swd_exchange
Debug: 2030 246 bitbang.c:457 bitbang_swd_read_reg(): bitbang_swd_read_reg
Debug: 2031 246 bitbang.c:394 bitbang_swd_exchange(): bitbang_swd_exchange
Debug: 2032 246 bitbang.c:394 bitbang_swd_exchange(): bitbang_swd_exchange
Debug: 2033 246 bitbang.c:479 bitbang_swd_read_reg(): OK AP read reg 8 = 00000000
Debug: 2034 246 bitbang.c:394 bitbang_swd_exchange(): bitbang_swd_exchange
Debug: 2035 246 bitbang.c:457 bitbang_swd_read_reg(): bitbang_swd_read_reg
Debug: 2036 246 bitbang.c:394 bitbang_swd_exchange(): bitbang_swd_exchange
Debug: 2037 246 bitbang.c:394 bitbang_swd_exchange(): bitbang_swd_exchange
Debug: 2038 246 bitbang.c:479 bitbang_swd_read_reg(): OK DP read reg C = 00000000
Debug: 2039 246 bitbang.c:568 bitbang_swd_run_queue(): bitbang_swd_run_queue
Debug: 2040 246 bitbang.c:394 bitbang_swd_exchange(): bitbang_swd_exchange
Debug: 2041 246 bitbang.c:575 bitbang_swd_run_queue(): SWD queue return value: 00
Debug: 2042 246 armv7m.c:341 armv7m_read_core_reg(): read r5 value 0x00000000
Debug: 2043 246 bitbang.c:516 bitbang_swd_write_reg(): bitbang_swd_write_reg
Debug: 2044 246 bitbang.c:394 bitbang_swd_exchange(): bitbang_swd_exchange
Debug: 2045 246 bitbang.c:394 bitbang_swd_exchange(): bitbang_swd_exchange
Debug: 2046 246 bitbang.c:394 bitbang_swd_exchange(): bitbang_swd_exchange
Debug: 2047 246 bitbang.c:538 bitbang_swd_write_reg(): OK AP write reg 4 = 00000006
Debug: 2048 246 bitbang.c:394 bitbang_swd_exchange(): bitbang_swd_exchange
Debug: 2049 246 bitbang.c:457 bitbang_swd_read_reg(): bitbang_swd_read_reg
Debug: 2050 246 bitbang.c:394 bitbang_swd_exchange(): bitbang_swd_exchange
Debug: 2051 246 bitbang.c:394 bitbang_swd_exchange(): bitbang_swd_exchange
Debug: 2052 246 bitbang.c:479 bitbang_swd_read_reg(): OK AP read reg 8 = 00000000
Debug: 2053 246 bitbang.c:394 bitbang_swd_exchange(): bitbang_swd_exchange
Debug: 2054 246 bitbang.c:457 bitbang_swd_read_reg(): bitbang_swd_read_reg
Debug: 2055 246 bitbang.c:394 bitbang_swd_exchange(): bitbang_swd_exchange
Debug: 2056 246 bitbang.c:394 bitbang_swd_exchange(): bitbang_swd_exchange
Debug: 2057 246 bitbang.c:479 bitbang_swd_read_reg(): OK DP read reg C = 00000000
Debug: 2058 246 bitbang.c:568 bitbang_swd_run_queue(): bitbang_swd_run_queue
Debug: 2059 246 bitbang.c:394 bitbang_swd_exchange(): bitbang_swd_exchange
Debug: 2060 246 bitbang.c:575 bitbang_swd_run_queue(): SWD queue return value: 00
Debug: 2061 246 armv7m.c:341 armv7m_read_core_reg(): read r6 value 0x00000000
Debug: 2062 246 bitbang.c:516 bitbang_swd_write_reg(): bitbang_swd_write_reg
Debug: 2063 246 bitbang.c:394 bitbang_swd_exchange(): bitbang_swd_exchange
Debug: 2064 246 bitbang.c:394 bitbang_swd_exchange(): bitbang_swd_exchange
Debug: 2065 246 bitbang.c:394 bitbang_swd_exchange(): bitbang_swd_exchange
Debug: 2066 246 bitbang.c:538 bitbang_swd_write_reg(): OK AP write reg 4 = 00000007
Debug: 2067 246 bitbang.c:394 bitbang_swd_exchange(): bitbang_swd_exchange
Debug: 2068 246 bitbang.c:457 bitbang_swd_read_reg(): bitbang_swd_read_reg
Debug: 2069 247 bitbang.c:394 bitbang_swd_exchange(): bitbang_swd_exchange
Debug: 2070 247 bitbang.c:394 bitbang_swd_exchange(): bitbang_swd_exchange
Debug: 2071 247 bitbang.c:479 bitbang_swd_read_reg(): OK AP read reg 8 = 00000000
Debug: 2072 247 bitbang.c:394 bitbang_swd_exchange(): bitbang_swd_exchange
Debug: 2073 247 bitbang.c:457 bitbang_swd_read_reg(): bitbang_swd_read_reg
Debug: 2074 247 bitbang.c:394 bitbang_swd_exchange(): bitbang_swd_exchange
Debug: 2075 247 bitbang.c:394 bitbang_swd_exchange(): bitbang_swd_exchange
Debug: 2076 247 bitbang.c:479 bitbang_swd_read_reg(): OK DP read reg C = 00000000
Debug: 2077 247 bitbang.c:568 bitbang_swd_run_queue(): bitbang_swd_run_queue
Debug: 2078 247 bitbang.c:394 bitbang_swd_exchange(): bitbang_swd_exchange
Debug: 2079 247 bitbang.c:575 bitbang_swd_run_queue(): SWD queue return value: 00
Debug: 2080 247 armv7m.c:341 armv7m_read_core_reg(): read r7 value 0x00000000
Debug: 2081 247 bitbang.c:516 bitbang_swd_write_reg(): bitbang_swd_write_reg
Debug: 2082 247 bitbang.c:394 bitbang_swd_exchange(): bitbang_swd_exchange
Debug: 2083 247 bitbang.c:394 bitbang_swd_exchange(): bitbang_swd_exchange
Debug: 2084 247 bitbang.c:394 bitbang_swd_exchange(): bitbang_swd_exchange
Debug: 2085 247 bitbang.c:538 bitbang_swd_write_reg(): OK AP write reg 4 = 00000008
Debug: 2086 247 bitbang.c:394 bitbang_swd_exchange(): bitbang_swd_exchange
Debug: 2087 247 bitbang.c:457 bitbang_swd_read_reg(): bitbang_swd_read_reg
Debug: 2088 247 bitbang.c:394 bitbang_swd_exchange(): bitbang_swd_exchange
Debug: 2089 247 bitbang.c:394 bitbang_swd_exchange(): bitbang_swd_exchange
Debug: 2090 247 bitbang.c:479 bitbang_swd_read_reg(): OK AP read reg 8 = 00000000
Debug: 2091 247 bitbang.c:394 bitbang_swd_exchange(): bitbang_swd_exchange
Debug: 2092 247 bitbang.c:457 bitbang_swd_read_reg(): bitbang_swd_read_reg
Debug: 2093 247 bitbang.c:394 bitbang_swd_exchange(): bitbang_swd_exchange
Debug: 2094 247 bitbang.c:394 bitbang_swd_exchange(): bitbang_swd_exchange
Debug: 2095 247 bitbang.c:479 bitbang_swd_read_reg(): OK DP read reg C = 00000000
Debug: 2096 247 bitbang.c:568 bitbang_swd_run_queue(): bitbang_swd_run_queue
Debug: 2097 247 bitbang.c:394 bitbang_swd_exchange(): bitbang_swd_exchange
Debug: 2098 247 bitbang.c:575 bitbang_swd_run_queue(): SWD queue return value: 00
Debug: 2099 247 armv7m.c:341 armv7m_read_core_reg(): read r8 value 0x00000000
Debug: 2100 247 bitbang.c:516 bitbang_swd_write_reg(): bitbang_swd_write_reg
Debug: 2101 247 bitbang.c:394 bitbang_swd_exchange(): bitbang_swd_exchange
Debug: 2102 247 bitbang.c:394 bitbang_swd_exchange(): bitbang_swd_exchange
Debug: 2103 247 bitbang.c:394 bitbang_swd_exchange(): bitbang_swd_exchange
Debug: 2104 247 bitbang.c:538 bitbang_swd_write_reg(): OK AP write reg 4 = 00000009
Debug: 2105 247 bitbang.c:394 bitbang_swd_exchange(): bitbang_swd_exchange
Debug: 2106 248 bitbang.c:457 bitbang_swd_read_reg(): bitbang_swd_read_reg
Debug: 2107 248 bitbang.c:394 bitbang_swd_exchange(): bitbang_swd_exchange
Debug: 2108 248 bitbang.c:394 bitbang_swd_exchange(): bitbang_swd_exchange
Debug: 2109 248 bitbang.c:479 bitbang_swd_read_reg(): OK AP read reg 8 = 00000000
Debug: 2110 248 bitbang.c:394 bitbang_swd_exchange(): bitbang_swd_exchange
Debug: 2111 248 bitbang.c:457 bitbang_swd_read_reg(): bitbang_swd_read_reg
Debug: 2112 248 bitbang.c:394 bitbang_swd_exchange(): bitbang_swd_exchange
Debug: 2113 248 bitbang.c:394 bitbang_swd_exchange(): bitbang_swd_exchange
Debug: 2114 248 bitbang.c:479 bitbang_swd_read_reg(): OK DP read reg C = 00000000
Debug: 2115 248 bitbang.c:568 bitbang_swd_run_queue(): bitbang_swd_run_queue
Debug: 2116 248 bitbang.c:394 bitbang_swd_exchange(): bitbang_swd_exchange
Debug: 2117 248 bitbang.c:575 bitbang_swd_run_queue(): SWD queue return value: 00
Debug: 2118 248 armv7m.c:341 armv7m_read_core_reg(): read r9 value 0x00000000
Debug: 2119 248 bitbang.c:516 bitbang_swd_write_reg(): bitbang_swd_write_reg
Debug: 2120 248 bitbang.c:394 bitbang_swd_exchange(): bitbang_swd_exchange
Debug: 2121 248 bitbang.c:394 bitbang_swd_exchange(): bitbang_swd_exchange
Debug: 2122 248 bitbang.c:394 bitbang_swd_exchange(): bitbang_swd_exchange
Debug: 2123 248 bitbang.c:538 bitbang_swd_write_reg(): OK AP write reg 4 = 0000000a
Debug: 2124 248 bitbang.c:394 bitbang_swd_exchange(): bitbang_swd_exchange
Debug: 2125 248 bitbang.c:457 bitbang_swd_read_reg(): bitbang_swd_read_reg
Debug: 2126 248 bitbang.c:394 bitbang_swd_exchange(): bitbang_swd_exchange
Debug: 2127 248 bitbang.c:394 bitbang_swd_exchange(): bitbang_swd_exchange
Debug: 2128 248 bitbang.c:479 bitbang_swd_read_reg(): OK AP read reg 8 = 00000000
Debug: 2129 248 bitbang.c:394 bitbang_swd_exchange(): bitbang_swd_exchange
Debug: 2130 248 bitbang.c:457 bitbang_swd_read_reg(): bitbang_swd_read_reg
Debug: 2131 248 bitbang.c:394 bitbang_swd_exchange(): bitbang_swd_exchange
Debug: 2132 248 bitbang.c:394 bitbang_swd_exchange(): bitbang_swd_exchange
Debug: 2133 248 bitbang.c:479 bitbang_swd_read_reg(): OK DP read reg C = 00000000
Debug: 2134 248 bitbang.c:568 bitbang_swd_run_queue(): bitbang_swd_run_queue
Debug: 2135 248 bitbang.c:394 bitbang_swd_exchange(): bitbang_swd_exchange
Debug: 2136 248 bitbang.c:575 bitbang_swd_run_queue(): SWD queue return value: 00
Debug: 2137 248 armv7m.c:341 armv7m_read_core_reg(): read r10 value 0x00000000
Debug: 2138 248 bitbang.c:516 bitbang_swd_write_reg(): bitbang_swd_write_reg
Debug: 2139 248 bitbang.c:394 bitbang_swd_exchange(): bitbang_swd_exchange
Debug: 2140 248 bitbang.c:394 bitbang_swd_exchange(): bitbang_swd_exchange
Debug: 2141 248 bitbang.c:394 bitbang_swd_exchange(): bitbang_swd_exchange
Debug: 2142 248 bitbang.c:538 bitbang_swd_write_reg(): OK AP write reg 4 = 0000000b
Debug: 2143 248 bitbang.c:394 bitbang_swd_exchange(): bitbang_swd_exchange
Debug: 2144 249 bitbang.c:457 bitbang_swd_read_reg(): bitbang_swd_read_reg
Debug: 2145 249 bitbang.c:394 bitbang_swd_exchange(): bitbang_swd_exchange
Debug: 2146 249 bitbang.c:394 bitbang_swd_exchange(): bitbang_swd_exchange
Debug: 2147 249 bitbang.c:479 bitbang_swd_read_reg(): OK AP read reg 8 = 00000000
Debug: 2148 249 bitbang.c:394 bitbang_swd_exchange(): bitbang_swd_exchange
Debug: 2149 249 bitbang.c:457 bitbang_swd_read_reg(): bitbang_swd_read_reg
Debug: 2150 249 bitbang.c:394 bitbang_swd_exchange(): bitbang_swd_exchange
Debug: 2151 249 bitbang.c:394 bitbang_swd_exchange(): bitbang_swd_exchange
Debug: 2152 249 bitbang.c:479 bitbang_swd_read_reg(): OK DP read reg C = 00000000
Debug: 2153 249 bitbang.c:568 bitbang_swd_run_queue(): bitbang_swd_run_queue
Debug: 2154 249 bitbang.c:394 bitbang_swd_exchange(): bitbang_swd_exchange
Debug: 2155 249 bitbang.c:575 bitbang_swd_run_queue(): SWD queue return value: 00
Debug: 2156 249 armv7m.c:341 armv7m_read_core_reg(): read r11 value 0x00000000
Debug: 2157 249 bitbang.c:516 bitbang_swd_write_reg(): bitbang_swd_write_reg
Debug: 2158 249 bitbang.c:394 bitbang_swd_exchange(): bitbang_swd_exchange
Debug: 2159 249 bitbang.c:394 bitbang_swd_exchange(): bitbang_swd_exchange
Debug: 2160 249 bitbang.c:394 bitbang_swd_exchange(): bitbang_swd_exchange
Debug: 2161 249 bitbang.c:538 bitbang_swd_write_reg(): OK AP write reg 4 = 0000000c
Debug: 2162 249 bitbang.c:394 bitbang_swd_exchange(): bitbang_swd_exchange
Debug: 2163 249 bitbang.c:457 bitbang_swd_read_reg(): bitbang_swd_read_reg
Debug: 2164 249 bitbang.c:394 bitbang_swd_exchange(): bitbang_swd_exchange
Debug: 2165 249 bitbang.c:394 bitbang_swd_exchange(): bitbang_swd_exchange
Debug: 2166 249 bitbang.c:479 bitbang_swd_read_reg(): OK AP read reg 8 = 00000000
Debug: 2167 249 bitbang.c:394 bitbang_swd_exchange(): bitbang_swd_exchange
Debug: 2168 249 bitbang.c:457 bitbang_swd_read_reg(): bitbang_swd_read_reg
Debug: 2169 249 bitbang.c:394 bitbang_swd_exchange(): bitbang_swd_exchange
Debug: 2170 249 bitbang.c:394 bitbang_swd_exchange(): bitbang_swd_exchange
Debug: 2171 249 bitbang.c:479 bitbang_swd_read_reg(): OK DP read reg C = 00000000
Debug: 2172 249 bitbang.c:568 bitbang_swd_run_queue(): bitbang_swd_run_queue
Debug: 2173 249 bitbang.c:394 bitbang_swd_exchange(): bitbang_swd_exchange
Debug: 2174 249 bitbang.c:575 bitbang_swd_run_queue(): SWD queue return value: 00
Debug: 2175 249 armv7m.c:341 armv7m_read_core_reg(): read r12 value 0x00000000
Debug: 2176 249 bitbang.c:516 bitbang_swd_write_reg(): bitbang_swd_write_reg
Debug: 2177 249 bitbang.c:394 bitbang_swd_exchange(): bitbang_swd_exchange
Debug: 2178 249 bitbang.c:394 bitbang_swd_exchange(): bitbang_swd_exchange
Debug: 2179 249 bitbang.c:394 bitbang_swd_exchange(): bitbang_swd_exchange
Debug: 2180 249 bitbang.c:538 bitbang_swd_write_reg(): OK AP write reg 4 = 0000000d
Debug: 2181 249 bitbang.c:394 bitbang_swd_exchange(): bitbang_swd_exchange
Debug: 2182 249 bitbang.c:457 bitbang_swd_read_reg(): bitbang_swd_read_reg
Debug: 2183 249 bitbang.c:394 bitbang_swd_exchange(): bitbang_swd_exchange
Debug: 2184 250 bitbang.c:394 bitbang_swd_exchange(): bitbang_swd_exchange
Debug: 2185 250 bitbang.c:479 bitbang_swd_read_reg(): OK AP read reg 8 = 00000000
Debug: 2186 250 bitbang.c:394 bitbang_swd_exchange(): bitbang_swd_exchange
Debug: 2187 250 bitbang.c:457 bitbang_swd_read_reg(): bitbang_swd_read_reg
Debug: 2188 250 bitbang.c:394 bitbang_swd_exchange(): bitbang_swd_exchange
Debug: 2189 250 bitbang.c:394 bitbang_swd_exchange(): bitbang_swd_exchange
Debug: 2190 250 bitbang.c:479 bitbang_swd_read_reg(): OK DP read reg C = 24003af8
Debug: 2191 250 bitbang.c:568 bitbang_swd_run_queue(): bitbang_swd_run_queue
Debug: 2192 250 bitbang.c:394 bitbang_swd_exchange(): bitbang_swd_exchange
Debug: 2193 250 bitbang.c:575 bitbang_swd_run_queue(): SWD queue return value: 00
Debug: 2194 250 armv7m.c:341 armv7m_read_core_reg(): read sp value 0x24003af8
Debug: 2195 250 bitbang.c:516 bitbang_swd_write_reg(): bitbang_swd_write_reg
Debug: 2196 250 bitbang.c:394 bitbang_swd_exchange(): bitbang_swd_exchange
Debug: 2197 250 bitbang.c:394 bitbang_swd_exchange(): bitbang_swd_exchange
Debug: 2198 250 bitbang.c:394 bitbang_swd_exchange(): bitbang_swd_exchange
Debug: 2199 250 bitbang.c:538 bitbang_swd_write_reg(): OK AP write reg 4 = 0000000e
Debug: 2200 250 bitbang.c:394 bitbang_swd_exchange(): bitbang_swd_exchange
Debug: 2201 250 bitbang.c:457 bitbang_swd_read_reg(): bitbang_swd_read_reg
Debug: 2202 250 bitbang.c:394 bitbang_swd_exchange(): bitbang_swd_exchange
Debug: 2203 250 bitbang.c:394 bitbang_swd_exchange(): bitbang_swd_exchange
Debug: 2204 250 bitbang.c:479 bitbang_swd_read_reg(): OK AP read reg 8 = 24003af8
Debug: 2205 250 bitbang.c:394 bitbang_swd_exchange(): bitbang_swd_exchange
Debug: 2206 250 bitbang.c:457 bitbang_swd_read_reg(): bitbang_swd_read_reg
Debug: 2207 250 bitbang.c:394 bitbang_swd_exchange(): bitbang_swd_exchange
Debug: 2208 250 bitbang.c:394 bitbang_swd_exchange(): bitbang_swd_exchange
Debug: 2209 250 bitbang.c:479 bitbang_swd_read_reg(): OK DP read reg C = ffffffff
Debug: 2210 250 bitbang.c:568 bitbang_swd_run_queue(): bitbang_swd_run_queue
Debug: 2211 250 bitbang.c:394 bitbang_swd_exchange(): bitbang_swd_exchange
Debug: 2212 250 bitbang.c:575 bitbang_swd_run_queue(): SWD queue return value: 00
Debug: 2213 250 armv7m.c:341 armv7m_read_core_reg(): read lr value 0xffffffff
Debug: 2214 250 bitbang.c:516 bitbang_swd_write_reg(): bitbang_swd_write_reg
Debug: 2215 250 bitbang.c:394 bitbang_swd_exchange(): bitbang_swd_exchange
Debug: 2216 250 bitbang.c:394 bitbang_swd_exchange(): bitbang_swd_exchange
Debug: 2217 250 bitbang.c:394 bitbang_swd_exchange(): bitbang_swd_exchange
Debug: 2218 250 bitbang.c:538 bitbang_swd_write_reg(): OK AP write reg 4 = 0000000f
Debug: 2219 250 bitbang.c:394 bitbang_swd_exchange(): bitbang_swd_exchange
Debug: 2220 250 bitbang.c:457 bitbang_swd_read_reg(): bitbang_swd_read_reg
Debug: 2221 250 bitbang.c:394 bitbang_swd_exchange(): bitbang_swd_exchange
Debug: 2222 250 bitbang.c:394 bitbang_swd_exchange(): bitbang_swd_exchange
Debug: 2223 251 bitbang.c:479 bitbang_swd_read_reg(): OK AP read reg 8 = ffffffff
Debug: 2224 251 bitbang.c:394 bitbang_swd_exchange(): bitbang_swd_exchange
Debug: 2225 251 bitbang.c:457 bitbang_swd_read_reg(): bitbang_swd_read_reg
Debug: 2226 251 bitbang.c:394 bitbang_swd_exchange(): bitbang_swd_exchange
Debug: 2227 251 bitbang.c:394 bitbang_swd_exchange(): bitbang_swd_exchange
Debug: 2228 251 bitbang.c:479 bitbang_swd_read_reg(): OK DP read reg C = 1ff09abc
Debug: 2229 251 bitbang.c:568 bitbang_swd_run_queue(): bitbang_swd_run_queue
Debug: 2230 251 bitbang.c:394 bitbang_swd_exchange(): bitbang_swd_exchange
Debug: 2231 251 bitbang.c:575 bitbang_swd_run_queue(): SWD queue return value: 00
Debug: 2232 251 armv7m.c:341 armv7m_read_core_reg(): read pc value 0x1ff09abc
Debug: 2233 251 bitbang.c:516 bitbang_swd_write_reg(): bitbang_swd_write_reg
Debug: 2234 251 bitbang.c:394 bitbang_swd_exchange(): bitbang_swd_exchange
Debug: 2235 251 bitbang.c:394 bitbang_swd_exchange(): bitbang_swd_exchange
Debug: 2236 251 bitbang.c:394 bitbang_swd_exchange(): bitbang_swd_exchange
Debug: 2237 251 bitbang.c:538 bitbang_swd_write_reg(): OK AP write reg 4 = 00000010
Debug: 2238 251 bitbang.c:394 bitbang_swd_exchange(): bitbang_swd_exchange
Debug: 2239 251 bitbang.c:457 bitbang_swd_read_reg(): bitbang_swd_read_reg
Debug: 2240 251 bitbang.c:394 bitbang_swd_exchange(): bitbang_swd_exchange
Debug: 2241 251 bitbang.c:394 bitbang_swd_exchange(): bitbang_swd_exchange
Debug: 2242 251 bitbang.c:479 bitbang_swd_read_reg(): OK AP read reg 8 = 1ff09abc
Debug: 2243 251 bitbang.c:394 bitbang_swd_exchange(): bitbang_swd_exchange
Debug: 2244 251 bitbang.c:457 bitbang_swd_read_reg(): bitbang_swd_read_reg
Debug: 2245 251 bitbang.c:394 bitbang_swd_exchange(): bitbang_swd_exchange
Debug: 2246 251 bitbang.c:394 bitbang_swd_exchange(): bitbang_swd_exchange
Debug: 2247 251 bitbang.c:479 bitbang_swd_read_reg(): OK DP read reg C = 01000000
Debug: 2248 251 bitbang.c:568 bitbang_swd_run_queue(): bitbang_swd_run_queue
Debug: 2249 251 bitbang.c:394 bitbang_swd_exchange(): bitbang_swd_exchange
Debug: 2250 251 bitbang.c:575 bitbang_swd_run_queue(): SWD queue return value: 00
Debug: 2251 251 armv7m.c:341 armv7m_read_core_reg(): read xPSR value 0x01000000
Debug: 2252 251 bitbang.c:516 bitbang_swd_write_reg(): bitbang_swd_write_reg
Debug: 2253 251 bitbang.c:394 bitbang_swd_exchange(): bitbang_swd_exchange
Debug: 2254 251 bitbang.c:394 bitbang_swd_exchange(): bitbang_swd_exchange
Debug: 2255 251 bitbang.c:394 bitbang_swd_exchange(): bitbang_swd_exchange
Debug: 2256 251 bitbang.c:538 bitbang_swd_write_reg(): OK AP write reg 4 = 00000011
Debug: 2257 251 bitbang.c:394 bitbang_swd_exchange(): bitbang_swd_exchange
Debug: 2258 251 bitbang.c:457 bitbang_swd_read_reg(): bitbang_swd_read_reg
Debug: 2259 251 bitbang.c:394 bitbang_swd_exchange(): bitbang_swd_exchange
Debug: 2260 251 bitbang.c:394 bitbang_swd_exchange(): bitbang_swd_exchange
Debug: 2261 252 bitbang.c:479 bitbang_swd_read_reg(): OK AP read reg 8 = 01000000
Debug: 2262 252 bitbang.c:394 bitbang_swd_exchange(): bitbang_swd_exchange
Debug: 2263 252 bitbang.c:457 bitbang_swd_read_reg(): bitbang_swd_read_reg
Debug: 2264 252 bitbang.c:394 bitbang_swd_exchange(): bitbang_swd_exchange
Debug: 2265 252 bitbang.c:394 bitbang_swd_exchange(): bitbang_swd_exchange
Debug: 2266 252 bitbang.c:479 bitbang_swd_read_reg(): OK DP read reg C = 24003af8
Debug: 2267 252 bitbang.c:568 bitbang_swd_run_queue(): bitbang_swd_run_queue
Debug: 2268 252 bitbang.c:394 bitbang_swd_exchange(): bitbang_swd_exchange
Debug: 2269 252 bitbang.c:575 bitbang_swd_run_queue(): SWD queue return value: 00
Debug: 2270 252 armv7m.c:341 armv7m_read_core_reg(): read msp value 0x24003af8
Debug: 2271 252 bitbang.c:516 bitbang_swd_write_reg(): bitbang_swd_write_reg
Debug: 2272 252 bitbang.c:394 bitbang_swd_exchange(): bitbang_swd_exchange
Debug: 2273 252 bitbang.c:394 bitbang_swd_exchange(): bitbang_swd_exchange
Debug: 2274 252 bitbang.c:394 bitbang_swd_exchange(): bitbang_swd_exchange
Debug: 2275 252 bitbang.c:538 bitbang_swd_write_reg(): OK AP write reg 4 = 00000012
Debug: 2276 252 bitbang.c:394 bitbang_swd_exchange(): bitbang_swd_exchange
Debug: 2277 252 bitbang.c:457 bitbang_swd_read_reg(): bitbang_swd_read_reg
Debug: 2278 252 bitbang.c:394 bitbang_swd_exchange(): bitbang_swd_exchange
Debug: 2279 252 bitbang.c:394 bitbang_swd_exchange(): bitbang_swd_exchange
Debug: 2280 252 bitbang.c:479 bitbang_swd_read_reg(): OK AP read reg 8 = 24003af8
Debug: 2281 252 bitbang.c:394 bitbang_swd_exchange(): bitbang_swd_exchange
Debug: 2282 252 bitbang.c:457 bitbang_swd_read_reg(): bitbang_swd_read_reg
Debug: 2283 252 bitbang.c:394 bitbang_swd_exchange(): bitbang_swd_exchange
Debug: 2284 252 bitbang.c:394 bitbang_swd_exchange(): bitbang_swd_exchange
Debug: 2285 252 bitbang.c:479 bitbang_swd_read_reg(): OK DP read reg C = 00000000
Debug: 2286 252 bitbang.c:568 bitbang_swd_run_queue(): bitbang_swd_run_queue
Debug: 2287 252 bitbang.c:394 bitbang_swd_exchange(): bitbang_swd_exchange
Debug: 2288 252 bitbang.c:575 bitbang_swd_run_queue(): SWD queue return value: 00
Debug: 2289 252 armv7m.c:341 armv7m_read_core_reg(): read psp value 0x00000000
Debug: 2290 252 bitbang.c:516 bitbang_swd_write_reg(): bitbang_swd_write_reg
Debug: 2291 252 bitbang.c:394 bitbang_swd_exchange(): bitbang_swd_exchange
Debug: 2292 252 bitbang.c:394 bitbang_swd_exchange(): bitbang_swd_exchange
Debug: 2293 252 bitbang.c:394 bitbang_swd_exchange(): bitbang_swd_exchange
Debug: 2294 252 bitbang.c:538 bitbang_swd_write_reg(): OK AP write reg 4 = 00000014
Debug: 2295 252 bitbang.c:394 bitbang_swd_exchange(): bitbang_swd_exchange
Debug: 2296 252 bitbang.c:457 bitbang_swd_read_reg(): bitbang_swd_read_reg
Debug: 2297 252 bitbang.c:394 bitbang_swd_exchange(): bitbang_swd_exchange
Debug: 2298 253 bitbang.c:394 bitbang_swd_exchange(): bitbang_swd_exchange
Debug: 2299 253 bitbang.c:479 bitbang_swd_read_reg(): OK AP read reg 8 = 00000000
Debug: 2300 253 bitbang.c:394 bitbang_swd_exchange(): bitbang_swd_exchange
Debug: 2301 253 bitbang.c:457 bitbang_swd_read_reg(): bitbang_swd_read_reg
Debug: 2302 253 bitbang.c:394 bitbang_swd_exchange(): bitbang_swd_exchange
Debug: 2303 253 bitbang.c:394 bitbang_swd_exchange(): bitbang_swd_exchange
Debug: 2304 253 bitbang.c:479 bitbang_swd_read_reg(): OK DP read reg C = 00000000
Debug: 2305 253 bitbang.c:568 bitbang_swd_run_queue(): bitbang_swd_run_queue
Debug: 2306 253 bitbang.c:394 bitbang_swd_exchange(): bitbang_swd_exchange
Debug: 2307 253 bitbang.c:575 bitbang_swd_run_queue(): SWD queue return value: 00
Debug: 2308 253 armv7m.c:341 armv7m_read_core_reg(): read pmsk_bpri_fltmsk_ctrl value 0x00000000
Debug: 2309 253 bitbang.c:516 bitbang_swd_write_reg(): bitbang_swd_write_reg
Debug: 2310 253 bitbang.c:394 bitbang_swd_exchange(): bitbang_swd_exchange
Debug: 2311 253 bitbang.c:394 bitbang_swd_exchange(): bitbang_swd_exchange
Debug: 2312 253 bitbang.c:394 bitbang_swd_exchange(): bitbang_swd_exchange
Debug: 2313 253 bitbang.c:538 bitbang_swd_write_reg(): OK AP write reg 4 = 00000040
Debug: 2314 253 bitbang.c:394 bitbang_swd_exchange(): bitbang_swd_exchange
Debug: 2315 253 bitbang.c:457 bitbang_swd_read_reg(): bitbang_swd_read_reg
Debug: 2316 253 bitbang.c:394 bitbang_swd_exchange(): bitbang_swd_exchange
Debug: 2317 253 bitbang.c:394 bitbang_swd_exchange(): bitbang_swd_exchange
Debug: 2318 253 bitbang.c:479 bitbang_swd_read_reg(): OK AP read reg 8 = 00000000
Debug: 2319 253 bitbang.c:394 bitbang_swd_exchange(): bitbang_swd_exchange
Debug: 2320 253 bitbang.c:457 bitbang_swd_read_reg(): bitbang_swd_read_reg
Debug: 2321 253 bitbang.c:394 bitbang_swd_exchange(): bitbang_swd_exchange
Debug: 2322 253 bitbang.c:394 bitbang_swd_exchange(): bitbang_swd_exchange
Debug: 2323 253 bitbang.c:479 bitbang_swd_read_reg(): OK DP read reg C = 00000000
Debug: 2324 253 bitbang.c:568 bitbang_swd_run_queue(): bitbang_swd_run_queue
Debug: 2325 253 bitbang.c:394 bitbang_swd_exchange(): bitbang_swd_exchange
Debug: 2326 253 bitbang.c:575 bitbang_swd_run_queue(): SWD queue return value: 00
Debug: 2327 253 bitbang.c:516 bitbang_swd_write_reg(): bitbang_swd_write_reg
Debug: 2328 253 bitbang.c:394 bitbang_swd_exchange(): bitbang_swd_exchange
Debug: 2329 253 bitbang.c:394 bitbang_swd_exchange(): bitbang_swd_exchange
Debug: 2330 253 bitbang.c:394 bitbang_swd_exchange(): bitbang_swd_exchange
Debug: 2331 253 bitbang.c:538 bitbang_swd_write_reg(): OK AP write reg 4 = 00000041
Debug: 2332 253 bitbang.c:394 bitbang_swd_exchange(): bitbang_swd_exchange
Debug: 2333 253 bitbang.c:457 bitbang_swd_read_reg(): bitbang_swd_read_reg
Debug: 2334 253 bitbang.c:394 bitbang_swd_exchange(): bitbang_swd_exchange
Debug: 2335 253 bitbang.c:394 bitbang_swd_exchange(): bitbang_swd_exchange
Debug: 2336 254 bitbang.c:479 bitbang_swd_read_reg(): OK AP read reg 8 = 00000000
Debug: 2337 254 bitbang.c:394 bitbang_swd_exchange(): bitbang_swd_exchange
Debug: 2338 254 bitbang.c:457 bitbang_swd_read_reg(): bitbang_swd_read_reg
Debug: 2339 254 bitbang.c:394 bitbang_swd_exchange(): bitbang_swd_exchange
Debug: 2340 254 bitbang.c:394 bitbang_swd_exchange(): bitbang_swd_exchange
Debug: 2341 254 bitbang.c:479 bitbang_swd_read_reg(): OK DP read reg C = 00000000
Debug: 2342 254 bitbang.c:568 bitbang_swd_run_queue(): bitbang_swd_run_queue
Debug: 2343 254 bitbang.c:394 bitbang_swd_exchange(): bitbang_swd_exchange
Debug: 2344 254 bitbang.c:575 bitbang_swd_run_queue(): SWD queue return value: 00
Debug: 2345 254 armv7m.c:339 armv7m_read_core_reg(): read d0 value 0x0000000000000000
Debug: 2346 254 bitbang.c:516 bitbang_swd_write_reg(): bitbang_swd_write_reg
Debug: 2347 254 bitbang.c:394 bitbang_swd_exchange(): bitbang_swd_exchange
Debug: 2348 254 bitbang.c:394 bitbang_swd_exchange(): bitbang_swd_exchange
Debug: 2349 254 bitbang.c:394 bitbang_swd_exchange(): bitbang_swd_exchange
Debug: 2350 254 bitbang.c:538 bitbang_swd_write_reg(): OK AP write reg 4 = 00000042
Debug: 2351 254 bitbang.c:394 bitbang_swd_exchange(): bitbang_swd_exchange
Debug: 2352 254 bitbang.c:457 bitbang_swd_read_reg(): bitbang_swd_read_reg
Debug: 2353 254 bitbang.c:394 bitbang_swd_exchange(): bitbang_swd_exchange
Debug: 2354 254 bitbang.c:394 bitbang_swd_exchange(): bitbang_swd_exchange
Debug: 2355 254 bitbang.c:479 bitbang_swd_read_reg(): OK AP read reg 8 = 00000000
Debug: 2356 254 bitbang.c:394 bitbang_swd_exchange(): bitbang_swd_exchange
Debug: 2357 254 bitbang.c:457 bitbang_swd_read_reg(): bitbang_swd_read_reg
Debug: 2358 254 bitbang.c:394 bitbang_swd_exchange(): bitbang_swd_exchange
Debug: 2359 254 bitbang.c:394 bitbang_swd_exchange(): bitbang_swd_exchange
Debug: 2360 254 bitbang.c:479 bitbang_swd_read_reg(): OK DP read reg C = 00000000
Debug: 2361 254 bitbang.c:568 bitbang_swd_run_queue(): bitbang_swd_run_queue
Debug: 2362 254 bitbang.c:394 bitbang_swd_exchange(): bitbang_swd_exchange
Debug: 2363 254 bitbang.c:575 bitbang_swd_run_queue(): SWD queue return value: 00
Debug: 2364 254 bitbang.c:516 bitbang_swd_write_reg(): bitbang_swd_write_reg
Debug: 2365 254 bitbang.c:394 bitbang_swd_exchange(): bitbang_swd_exchange
Debug: 2366 254 bitbang.c:394 bitbang_swd_exchange(): bitbang_swd_exchange
Debug: 2367 254 bitbang.c:394 bitbang_swd_exchange(): bitbang_swd_exchange
Debug: 2368 254 bitbang.c:538 bitbang_swd_write_reg(): OK AP write reg 4 = 00000043
Debug: 2369 254 bitbang.c:394 bitbang_swd_exchange(): bitbang_swd_exchange
Debug: 2370 254 bitbang.c:457 bitbang_swd_read_reg(): bitbang_swd_read_reg
Debug: 2371 254 bitbang.c:394 bitbang_swd_exchange(): bitbang_swd_exchange
Debug: 2372 254 bitbang.c:394 bitbang_swd_exchange(): bitbang_swd_exchange
Debug: 2373 255 bitbang.c:479 bitbang_swd_read_reg(): OK AP read reg 8 = 00000000
Debug: 2374 255 bitbang.c:394 bitbang_swd_exchange(): bitbang_swd_exchange
Debug: 2375 255 bitbang.c:457 bitbang_swd_read_reg(): bitbang_swd_read_reg
Debug: 2376 255 bitbang.c:394 bitbang_swd_exchange(): bitbang_swd_exchange
Debug: 2377 255 bitbang.c:394 bitbang_swd_exchange(): bitbang_swd_exchange
Debug: 2378 255 bitbang.c:479 bitbang_swd_read_reg(): OK DP read reg C = 00000000
Debug: 2379 255 bitbang.c:568 bitbang_swd_run_queue(): bitbang_swd_run_queue
Debug: 2380 255 bitbang.c:394 bitbang_swd_exchange(): bitbang_swd_exchange
Debug: 2381 255 bitbang.c:575 bitbang_swd_run_queue(): SWD queue return value: 00
Debug: 2382 255 armv7m.c:339 armv7m_read_core_reg(): read d1 value 0x0000000000000000
Debug: 2383 255 bitbang.c:516 bitbang_swd_write_reg(): bitbang_swd_write_reg
Debug: 2384 255 bitbang.c:394 bitbang_swd_exchange(): bitbang_swd_exchange
Debug: 2385 255 bitbang.c:394 bitbang_swd_exchange(): bitbang_swd_exchange
Debug: 2386 255 bitbang.c:394 bitbang_swd_exchange(): bitbang_swd_exchange
Debug: 2387 255 bitbang.c:538 bitbang_swd_write_reg(): OK AP write reg 4 = 00000044
Debug: 2388 255 bitbang.c:394 bitbang_swd_exchange(): bitbang_swd_exchange
Debug: 2389 255 bitbang.c:457 bitbang_swd_read_reg(): bitbang_swd_read_reg
Debug: 2390 255 bitbang.c:394 bitbang_swd_exchange(): bitbang_swd_exchange
Debug: 2391 255 bitbang.c:394 bitbang_swd_exchange(): bitbang_swd_exchange
Debug: 2392 255 bitbang.c:479 bitbang_swd_read_reg(): OK AP read reg 8 = 00000000
Debug: 2393 255 bitbang.c:394 bitbang_swd_exchange(): bitbang_swd_exchange
Debug: 2394 255 bitbang.c:457 bitbang_swd_read_reg(): bitbang_swd_read_reg
Debug: 2395 255 bitbang.c:394 bitbang_swd_exchange(): bitbang_swd_exchange
Debug: 2396 255 bitbang.c:394 bitbang_swd_exchange(): bitbang_swd_exchange
Debug: 2397 255 bitbang.c:479 bitbang_swd_read_reg(): OK DP read reg C = 00000000
Debug: 2398 255 bitbang.c:568 bitbang_swd_run_queue(): bitbang_swd_run_queue
Debug: 2399 255 bitbang.c:394 bitbang_swd_exchange(): bitbang_swd_exchange
Debug: 2400 255 bitbang.c:575 bitbang_swd_run_queue(): SWD queue return value: 00
Debug: 2401 255 bitbang.c:516 bitbang_swd_write_reg(): bitbang_swd_write_reg
Debug: 2402 255 bitbang.c:394 bitbang_swd_exchange(): bitbang_swd_exchange
Debug: 2403 255 bitbang.c:394 bitbang_swd_exchange(): bitbang_swd_exchange
Debug: 2404 255 bitbang.c:394 bitbang_swd_exchange(): bitbang_swd_exchange
Debug: 2405 255 bitbang.c:538 bitbang_swd_write_reg(): OK AP write reg 4 = 00000045
Debug: 2406 255 bitbang.c:394 bitbang_swd_exchange(): bitbang_swd_exchange
Debug: 2407 255 bitbang.c:457 bitbang_swd_read_reg(): bitbang_swd_read_reg
Debug: 2408 255 bitbang.c:394 bitbang_swd_exchange(): bitbang_swd_exchange
Debug: 2409 255 bitbang.c:394 bitbang_swd_exchange(): bitbang_swd_exchange
Debug: 2410 256 bitbang.c:479 bitbang_swd_read_reg(): OK AP read reg 8 = 00000000
Debug: 2411 256 bitbang.c:394 bitbang_swd_exchange(): bitbang_swd_exchange
Debug: 2412 256 bitbang.c:457 bitbang_swd_read_reg(): bitbang_swd_read_reg
Debug: 2413 256 bitbang.c:394 bitbang_swd_exchange(): bitbang_swd_exchange
Debug: 2414 256 bitbang.c:394 bitbang_swd_exchange(): bitbang_swd_exchange
Debug: 2415 256 bitbang.c:479 bitbang_swd_read_reg(): OK DP read reg C = 00000000
Debug: 2416 256 bitbang.c:568 bitbang_swd_run_queue(): bitbang_swd_run_queue
Debug: 2417 256 bitbang.c:394 bitbang_swd_exchange(): bitbang_swd_exchange
Debug: 2418 256 bitbang.c:575 bitbang_swd_run_queue(): SWD queue return value: 00
Debug: 2419 256 armv7m.c:339 armv7m_read_core_reg(): read d2 value 0x0000000000000000
Debug: 2420 256 bitbang.c:516 bitbang_swd_write_reg(): bitbang_swd_write_reg
Debug: 2421 256 bitbang.c:394 bitbang_swd_exchange(): bitbang_swd_exchange
Debug: 2422 256 bitbang.c:394 bitbang_swd_exchange(): bitbang_swd_exchange
Debug: 2423 256 bitbang.c:394 bitbang_swd_exchange(): bitbang_swd_exchange
Debug: 2424 256 bitbang.c:538 bitbang_swd_write_reg(): OK AP write reg 4 = 00000046
Debug: 2425 256 bitbang.c:394 bitbang_swd_exchange(): bitbang_swd_exchange
Debug: 2426 256 bitbang.c:457 bitbang_swd_read_reg(): bitbang_swd_read_reg
Debug: 2427 256 bitbang.c:394 bitbang_swd_exchange(): bitbang_swd_exchange
Debug: 2428 256 bitbang.c:394 bitbang_swd_exchange(): bitbang_swd_exchange
Debug: 2429 256 bitbang.c:479 bitbang_swd_read_reg(): OK AP read reg 8 = 00000000
Debug: 2430 256 bitbang.c:394 bitbang_swd_exchange(): bitbang_swd_exchange
Debug: 2431 256 bitbang.c:457 bitbang_swd_read_reg(): bitbang_swd_read_reg
Debug: 2432 256 bitbang.c:394 bitbang_swd_exchange(): bitbang_swd_exchange
Debug: 2433 256 bitbang.c:394 bitbang_swd_exchange(): bitbang_swd_exchange
Debug: 2434 256 bitbang.c:479 bitbang_swd_read_reg(): OK DP read reg C = 00000000
Debug: 2435 256 bitbang.c:568 bitbang_swd_run_queue(): bitbang_swd_run_queue
Debug: 2436 256 bitbang.c:394 bitbang_swd_exchange(): bitbang_swd_exchange
Debug: 2437 256 bitbang.c:575 bitbang_swd_run_queue(): SWD queue return value: 00
Debug: 2438 256 bitbang.c:516 bitbang_swd_write_reg(): bitbang_swd_write_reg
Debug: 2439 256 bitbang.c:394 bitbang_swd_exchange(): bitbang_swd_exchange
Debug: 2440 256 bitbang.c:394 bitbang_swd_exchange(): bitbang_swd_exchange
Debug: 2441 256 bitbang.c:394 bitbang_swd_exchange(): bitbang_swd_exchange
Debug: 2442 256 bitbang.c:538 bitbang_swd_write_reg(): OK AP write reg 4 = 00000047
Debug: 2443 256 bitbang.c:394 bitbang_swd_exchange(): bitbang_swd_exchange
Debug: 2444 256 bitbang.c:457 bitbang_swd_read_reg(): bitbang_swd_read_reg
Debug: 2445 256 bitbang.c:394 bitbang_swd_exchange(): bitbang_swd_exchange
Debug: 2446 256 bitbang.c:394 bitbang_swd_exchange(): bitbang_swd_exchange
Debug: 2447 257 bitbang.c:479 bitbang_swd_read_reg(): OK AP read reg 8 = 00000000
Debug: 2448 257 bitbang.c:394 bitbang_swd_exchange(): bitbang_swd_exchange
Debug: 2449 257 bitbang.c:457 bitbang_swd_read_reg(): bitbang_swd_read_reg
Debug: 2450 257 bitbang.c:394 bitbang_swd_exchange(): bitbang_swd_exchange
Debug: 2451 257 bitbang.c:394 bitbang_swd_exchange(): bitbang_swd_exchange
Debug: 2452 257 bitbang.c:479 bitbang_swd_read_reg(): OK DP read reg C = 00000000
Debug: 2453 257 bitbang.c:568 bitbang_swd_run_queue(): bitbang_swd_run_queue
Debug: 2454 257 bitbang.c:394 bitbang_swd_exchange(): bitbang_swd_exchange
Debug: 2455 257 bitbang.c:575 bitbang_swd_run_queue(): SWD queue return value: 00
Debug: 2456 257 armv7m.c:339 armv7m_read_core_reg(): read d3 value 0x0000000000000000
Debug: 2457 257 bitbang.c:516 bitbang_swd_write_reg(): bitbang_swd_write_reg
Debug: 2458 257 bitbang.c:394 bitbang_swd_exchange(): bitbang_swd_exchange
Debug: 2459 257 bitbang.c:394 bitbang_swd_exchange(): bitbang_swd_exchange
Debug: 2460 257 bitbang.c:394 bitbang_swd_exchange(): bitbang_swd_exchange
Debug: 2461 257 bitbang.c:538 bitbang_swd_write_reg(): OK AP write reg 4 = 00000048
Debug: 2462 257 bitbang.c:394 bitbang_swd_exchange(): bitbang_swd_exchange
Debug: 2463 257 bitbang.c:457 bitbang_swd_read_reg(): bitbang_swd_read_reg
Debug: 2464 257 bitbang.c:394 bitbang_swd_exchange(): bitbang_swd_exchange
Debug: 2465 257 bitbang.c:394 bitbang_swd_exchange(): bitbang_swd_exchange
Debug: 2466 257 bitbang.c:479 bitbang_swd_read_reg(): OK AP read reg 8 = 00000000
Debug: 2467 257 bitbang.c:394 bitbang_swd_exchange(): bitbang_swd_exchange
Debug: 2468 257 bitbang.c:457 bitbang_swd_read_reg(): bitbang_swd_read_reg
Debug: 2469 257 bitbang.c:394 bitbang_swd_exchange(): bitbang_swd_exchange
Debug: 2470 257 bitbang.c:394 bitbang_swd_exchange(): bitbang_swd_exchange
Debug: 2471 257 bitbang.c:479 bitbang_swd_read_reg(): OK DP read reg C = 00000000
Debug: 2472 257 bitbang.c:568 bitbang_swd_run_queue(): bitbang_swd_run_queue
Debug: 2473 257 bitbang.c:394 bitbang_swd_exchange(): bitbang_swd_exchange
Debug: 2474 257 bitbang.c:575 bitbang_swd_run_queue(): SWD queue return value: 00
Debug: 2475 257 bitbang.c:516 bitbang_swd_write_reg(): bitbang_swd_write_reg
Debug: 2476 257 bitbang.c:394 bitbang_swd_exchange(): bitbang_swd_exchange
Debug: 2477 257 bitbang.c:394 bitbang_swd_exchange(): bitbang_swd_exchange
Debug: 2478 257 bitbang.c:394 bitbang_swd_exchange(): bitbang_swd_exchange
Debug: 2479 257 bitbang.c:538 bitbang_swd_write_reg(): OK AP write reg 4 = 00000049
Debug: 2480 257 bitbang.c:394 bitbang_swd_exchange(): bitbang_swd_exchange
Debug: 2481 257 bitbang.c:457 bitbang_swd_read_reg(): bitbang_swd_read_reg
Debug: 2482 257 bitbang.c:394 bitbang_swd_exchange(): bitbang_swd_exchange
Debug: 2483 257 bitbang.c:394 bitbang_swd_exchange(): bitbang_swd_exchange
Debug: 2484 257 bitbang.c:479 bitbang_swd_read_reg(): OK AP read reg 8 = 00000000
Debug: 2485 258 bitbang.c:394 bitbang_swd_exchange(): bitbang_swd_exchange
Debug: 2486 258 bitbang.c:457 bitbang_swd_read_reg(): bitbang_swd_read_reg
Debug: 2487 258 bitbang.c:394 bitbang_swd_exchange(): bitbang_swd_exchange
Debug: 2488 258 bitbang.c:394 bitbang_swd_exchange(): bitbang_swd_exchange
Debug: 2489 258 bitbang.c:479 bitbang_swd_read_reg(): OK DP read reg C = 00000000
Debug: 2490 258 bitbang.c:568 bitbang_swd_run_queue(): bitbang_swd_run_queue
Debug: 2491 258 bitbang.c:394 bitbang_swd_exchange(): bitbang_swd_exchange
Debug: 2492 258 bitbang.c:575 bitbang_swd_run_queue(): SWD queue return value: 00
Debug: 2493 258 armv7m.c:339 armv7m_read_core_reg(): read d4 value 0x0000000000000000
Debug: 2494 258 bitbang.c:516 bitbang_swd_write_reg(): bitbang_swd_write_reg
Debug: 2495 258 bitbang.c:394 bitbang_swd_exchange(): bitbang_swd_exchange
Debug: 2496 258 bitbang.c:394 bitbang_swd_exchange(): bitbang_swd_exchange
Debug: 2497 258 bitbang.c:394 bitbang_swd_exchange(): bitbang_swd_exchange
Debug: 2498 258 bitbang.c:538 bitbang_swd_write_reg(): OK AP write reg 4 = 0000004a
Debug: 2499 258 bitbang.c:394 bitbang_swd_exchange(): bitbang_swd_exchange
Debug: 2500 258 bitbang.c:457 bitbang_swd_read_reg(): bitbang_swd_read_reg
Debug: 2501 258 bitbang.c:394 bitbang_swd_exchange(): bitbang_swd_exchange
Debug: 2502 258 bitbang.c:394 bitbang_swd_exchange(): bitbang_swd_exchange
Debug: 2503 258 bitbang.c:479 bitbang_swd_read_reg(): OK AP read reg 8 = 00000000
Debug: 2504 258 bitbang.c:394 bitbang_swd_exchange(): bitbang_swd_exchange
Debug: 2505 258 bitbang.c:457 bitbang_swd_read_reg(): bitbang_swd_read_reg
Debug: 2506 258 bitbang.c:394 bitbang_swd_exchange(): bitbang_swd_exchange
Debug: 2507 258 bitbang.c:394 bitbang_swd_exchange(): bitbang_swd_exchange
Debug: 2508 258 bitbang.c:479 bitbang_swd_read_reg(): OK DP read reg C = 00000000
Debug: 2509 258 bitbang.c:568 bitbang_swd_run_queue(): bitbang_swd_run_queue
Debug: 2510 258 bitbang.c:394 bitbang_swd_exchange(): bitbang_swd_exchange
Debug: 2511 258 bitbang.c:575 bitbang_swd_run_queue(): SWD queue return value: 00
Debug: 2512 258 bitbang.c:516 bitbang_swd_write_reg(): bitbang_swd_write_reg
Debug: 2513 258 bitbang.c:394 bitbang_swd_exchange(): bitbang_swd_exchange
Debug: 2514 258 bitbang.c:394 bitbang_swd_exchange(): bitbang_swd_exchange
Debug: 2515 258 bitbang.c:394 bitbang_swd_exchange(): bitbang_swd_exchange
Debug: 2516 258 bitbang.c:538 bitbang_swd_write_reg(): OK AP write reg 4 = 0000004b
Debug: 2517 258 bitbang.c:394 bitbang_swd_exchange(): bitbang_swd_exchange
Debug: 2518 258 bitbang.c:457 bitbang_swd_read_reg(): bitbang_swd_read_reg
Debug: 2519 258 bitbang.c:394 bitbang_swd_exchange(): bitbang_swd_exchange
Debug: 2520 258 bitbang.c:394 bitbang_swd_exchange(): bitbang_swd_exchange
Debug: 2521 258 bitbang.c:479 bitbang_swd_read_reg(): OK AP read reg 8 = 00000000
Debug: 2522 259 bitbang.c:394 bitbang_swd_exchange(): bitbang_swd_exchange
Debug: 2523 259 bitbang.c:457 bitbang_swd_read_reg(): bitbang_swd_read_reg
Debug: 2524 259 bitbang.c:394 bitbang_swd_exchange(): bitbang_swd_exchange
Debug: 2525 259 bitbang.c:394 bitbang_swd_exchange(): bitbang_swd_exchange
Debug: 2526 259 bitbang.c:479 bitbang_swd_read_reg(): OK DP read reg C = 00000000
Debug: 2527 259 bitbang.c:568 bitbang_swd_run_queue(): bitbang_swd_run_queue
Debug: 2528 259 bitbang.c:394 bitbang_swd_exchange(): bitbang_swd_exchange
Debug: 2529 259 bitbang.c:575 bitbang_swd_run_queue(): SWD queue return value: 00
Debug: 2530 259 armv7m.c:339 armv7m_read_core_reg(): read d5 value 0x0000000000000000
Debug: 2531 259 bitbang.c:516 bitbang_swd_write_reg(): bitbang_swd_write_reg
Debug: 2532 259 bitbang.c:394 bitbang_swd_exchange(): bitbang_swd_exchange
Debug: 2533 259 bitbang.c:394 bitbang_swd_exchange(): bitbang_swd_exchange
Debug: 2534 259 bitbang.c:394 bitbang_swd_exchange(): bitbang_swd_exchange
Debug: 2535 259 bitbang.c:538 bitbang_swd_write_reg(): OK AP write reg 4 = 0000004c
Debug: 2536 259 bitbang.c:394 bitbang_swd_exchange(): bitbang_swd_exchange
Debug: 2537 259 bitbang.c:457 bitbang_swd_read_reg(): bitbang_swd_read_reg
Debug: 2538 259 bitbang.c:394 bitbang_swd_exchange(): bitbang_swd_exchange
Debug: 2539 259 bitbang.c:394 bitbang_swd_exchange(): bitbang_swd_exchange
Debug: 2540 259 bitbang.c:479 bitbang_swd_read_reg(): OK AP read reg 8 = 00000000
Debug: 2541 259 bitbang.c:394 bitbang_swd_exchange(): bitbang_swd_exchange
Debug: 2542 259 bitbang.c:457 bitbang_swd_read_reg(): bitbang_swd_read_reg
Debug: 2543 259 bitbang.c:394 bitbang_swd_exchange(): bitbang_swd_exchange
Debug: 2544 259 bitbang.c:394 bitbang_swd_exchange(): bitbang_swd_exchange
Debug: 2545 259 bitbang.c:479 bitbang_swd_read_reg(): OK DP read reg C = 00000000
Debug: 2546 259 bitbang.c:568 bitbang_swd_run_queue(): bitbang_swd_run_queue
Debug: 2547 259 bitbang.c:394 bitbang_swd_exchange(): bitbang_swd_exchange
Debug: 2548 259 bitbang.c:575 bitbang_swd_run_queue(): SWD queue return value: 00
Debug: 2549 259 bitbang.c:516 bitbang_swd_write_reg(): bitbang_swd_write_reg
Debug: 2550 259 bitbang.c:394 bitbang_swd_exchange(): bitbang_swd_exchange
Debug: 2551 259 bitbang.c:394 bitbang_swd_exchange(): bitbang_swd_exchange
Debug: 2552 259 bitbang.c:394 bitbang_swd_exchange(): bitbang_swd_exchange
Debug: 2553 259 bitbang.c:538 bitbang_swd_write_reg(): OK AP write reg 4 = 0000004d
Debug: 2554 259 bitbang.c:394 bitbang_swd_exchange(): bitbang_swd_exchange
Debug: 2555 259 bitbang.c:457 bitbang_swd_read_reg(): bitbang_swd_read_reg
Debug: 2556 259 bitbang.c:394 bitbang_swd_exchange(): bitbang_swd_exchange
Debug: 2557 259 bitbang.c:394 bitbang_swd_exchange(): bitbang_swd_exchange
Debug: 2558 259 bitbang.c:479 bitbang_swd_read_reg(): OK AP read reg 8 = 00000000
Debug: 2559 260 bitbang.c:394 bitbang_swd_exchange(): bitbang_swd_exchange
Debug: 2560 260 bitbang.c:457 bitbang_swd_read_reg(): bitbang_swd_read_reg
Debug: 2561 260 bitbang.c:394 bitbang_swd_exchange(): bitbang_swd_exchange
Debug: 2562 260 bitbang.c:394 bitbang_swd_exchange(): bitbang_swd_exchange
Debug: 2563 260 bitbang.c:479 bitbang_swd_read_reg(): OK DP read reg C = 00000000
Debug: 2564 260 bitbang.c:568 bitbang_swd_run_queue(): bitbang_swd_run_queue
Debug: 2565 260 bitbang.c:394 bitbang_swd_exchange(): bitbang_swd_exchange
Debug: 2566 260 bitbang.c:575 bitbang_swd_run_queue(): SWD queue return value: 00
Debug: 2567 260 armv7m.c:339 armv7m_read_core_reg(): read d6 value 0x0000000000000000
Debug: 2568 260 bitbang.c:516 bitbang_swd_write_reg(): bitbang_swd_write_reg
Debug: 2569 260 bitbang.c:394 bitbang_swd_exchange(): bitbang_swd_exchange
Debug: 2570 260 bitbang.c:394 bitbang_swd_exchange(): bitbang_swd_exchange
Debug: 2571 260 bitbang.c:394 bitbang_swd_exchange(): bitbang_swd_exchange
Debug: 2572 260 bitbang.c:538 bitbang_swd_write_reg(): OK AP write reg 4 = 0000004e
Debug: 2573 260 bitbang.c:394 bitbang_swd_exchange(): bitbang_swd_exchange
Debug: 2574 260 bitbang.c:457 bitbang_swd_read_reg(): bitbang_swd_read_reg
Debug: 2575 260 bitbang.c:394 bitbang_swd_exchange(): bitbang_swd_exchange
Debug: 2576 260 bitbang.c:394 bitbang_swd_exchange(): bitbang_swd_exchange
Debug: 2577 260 bitbang.c:479 bitbang_swd_read_reg(): OK AP read reg 8 = 00000000
Debug: 2578 260 bitbang.c:394 bitbang_swd_exchange(): bitbang_swd_exchange
Debug: 2579 260 bitbang.c:457 bitbang_swd_read_reg(): bitbang_swd_read_reg
Debug: 2580 260 bitbang.c:394 bitbang_swd_exchange(): bitbang_swd_exchange
Debug: 2581 260 bitbang.c:394 bitbang_swd_exchange(): bitbang_swd_exchange
Debug: 2582 260 bitbang.c:479 bitbang_swd_read_reg(): OK DP read reg C = 00000000
Debug: 2583 260 bitbang.c:568 bitbang_swd_run_queue(): bitbang_swd_run_queue
Debug: 2584 260 bitbang.c:394 bitbang_swd_exchange(): bitbang_swd_exchange
Debug: 2585 260 bitbang.c:575 bitbang_swd_run_queue(): SWD queue return value: 00
Debug: 2586 260 bitbang.c:516 bitbang_swd_write_reg(): bitbang_swd_write_reg
Debug: 2587 260 bitbang.c:394 bitbang_swd_exchange(): bitbang_swd_exchange
Debug: 2588 260 bitbang.c:394 bitbang_swd_exchange(): bitbang_swd_exchange
Debug: 2589 260 bitbang.c:394 bitbang_swd_exchange(): bitbang_swd_exchange
Debug: 2590 260 bitbang.c:538 bitbang_swd_write_reg(): OK AP write reg 4 = 0000004f
Debug: 2591 260 bitbang.c:394 bitbang_swd_exchange(): bitbang_swd_exchange
Debug: 2592 260 bitbang.c:457 bitbang_swd_read_reg(): bitbang_swd_read_reg
Debug: 2593 260 bitbang.c:394 bitbang_swd_exchange(): bitbang_swd_exchange
Debug: 2594 260 bitbang.c:394 bitbang_swd_exchange(): bitbang_swd_exchange
Debug: 2595 261 bitbang.c:479 bitbang_swd_read_reg(): OK AP read reg 8 = 00000000
Debug: 2596 261 bitbang.c:394 bitbang_swd_exchange(): bitbang_swd_exchange
Debug: 2597 261 bitbang.c:457 bitbang_swd_read_reg(): bitbang_swd_read_reg
Debug: 2598 261 bitbang.c:394 bitbang_swd_exchange(): bitbang_swd_exchange
Debug: 2599 261 bitbang.c:394 bitbang_swd_exchange(): bitbang_swd_exchange
Debug: 2600 261 bitbang.c:479 bitbang_swd_read_reg(): OK DP read reg C = ffffffff
Debug: 2601 261 bitbang.c:568 bitbang_swd_run_queue(): bitbang_swd_run_queue
Debug: 2602 261 bitbang.c:394 bitbang_swd_exchange(): bitbang_swd_exchange
Debug: 2603 261 bitbang.c:575 bitbang_swd_run_queue(): SWD queue return value: 00
Debug: 2604 261 armv7m.c:339 armv7m_read_core_reg(): read d7 value 0xffffffff00000000
Debug: 2605 261 bitbang.c:516 bitbang_swd_write_reg(): bitbang_swd_write_reg
Debug: 2606 261 bitbang.c:394 bitbang_swd_exchange(): bitbang_swd_exchange
Debug: 2607 261 bitbang.c:394 bitbang_swd_exchange(): bitbang_swd_exchange
Debug: 2608 261 bitbang.c:394 bitbang_swd_exchange(): bitbang_swd_exchange
Debug: 2609 261 bitbang.c:538 bitbang_swd_write_reg(): OK AP write reg 4 = 00000050
Debug: 2610 261 bitbang.c:394 bitbang_swd_exchange(): bitbang_swd_exchange
Debug: 2611 261 bitbang.c:457 bitbang_swd_read_reg(): bitbang_swd_read_reg
Debug: 2612 261 bitbang.c:394 bitbang_swd_exchange(): bitbang_swd_exchange
Debug: 2613 261 bitbang.c:394 bitbang_swd_exchange(): bitbang_swd_exchange
Debug: 2614 261 bitbang.c:479 bitbang_swd_read_reg(): OK AP read reg 8 = ffffffff
Debug: 2615 261 bitbang.c:394 bitbang_swd_exchange(): bitbang_swd_exchange
Debug: 2616 261 bitbang.c:457 bitbang_swd_read_reg(): bitbang_swd_read_reg
Debug: 2617 261 bitbang.c:394 bitbang_swd_exchange(): bitbang_swd_exchange
Debug: 2618 261 bitbang.c:394 bitbang_swd_exchange(): bitbang_swd_exchange
Debug: 2619 261 bitbang.c:479 bitbang_swd_read_reg(): OK DP read reg C = 00000000
Debug: 2620 261 bitbang.c:568 bitbang_swd_run_queue(): bitbang_swd_run_queue
Debug: 2621 261 bitbang.c:394 bitbang_swd_exchange(): bitbang_swd_exchange
Debug: 2622 261 bitbang.c:575 bitbang_swd_run_queue(): SWD queue return value: 00
Debug: 2623 261 bitbang.c:516 bitbang_swd_write_reg(): bitbang_swd_write_reg
Debug: 2624 261 bitbang.c:394 bitbang_swd_exchange(): bitbang_swd_exchange
Debug: 2625 261 bitbang.c:394 bitbang_swd_exchange(): bitbang_swd_exchange
Debug: 2626 261 bitbang.c:394 bitbang_swd_exchange(): bitbang_swd_exchange
Debug: 2627 261 bitbang.c:538 bitbang_swd_write_reg(): OK AP write reg 4 = 00000051
Debug: 2628 261 bitbang.c:394 bitbang_swd_exchange(): bitbang_swd_exchange
Debug: 2629 261 bitbang.c:457 bitbang_swd_read_reg(): bitbang_swd_read_reg
Debug: 2630 261 bitbang.c:394 bitbang_swd_exchange(): bitbang_swd_exchange
Debug: 2631 261 bitbang.c:394 bitbang_swd_exchange(): bitbang_swd_exchange
Debug: 2632 262 bitbang.c:479 bitbang_swd_read_reg(): OK AP read reg 8 = 00000000
Debug: 2633 262 bitbang.c:394 bitbang_swd_exchange(): bitbang_swd_exchange
Debug: 2634 262 bitbang.c:457 bitbang_swd_read_reg(): bitbang_swd_read_reg
Debug: 2635 262 bitbang.c:394 bitbang_swd_exchange(): bitbang_swd_exchange
Debug: 2636 262 bitbang.c:394 bitbang_swd_exchange(): bitbang_swd_exchange
Debug: 2637 262 bitbang.c:479 bitbang_swd_read_reg(): OK DP read reg C = 00000000
Debug: 2638 262 bitbang.c:568 bitbang_swd_run_queue(): bitbang_swd_run_queue
Debug: 2639 262 bitbang.c:394 bitbang_swd_exchange(): bitbang_swd_exchange
Debug: 2640 262 bitbang.c:575 bitbang_swd_run_queue(): SWD queue return value: 00
Debug: 2641 262 armv7m.c:339 armv7m_read_core_reg(): read d8 value 0x0000000000000000
Debug: 2642 262 bitbang.c:516 bitbang_swd_write_reg(): bitbang_swd_write_reg
Debug: 2643 262 bitbang.c:394 bitbang_swd_exchange(): bitbang_swd_exchange
Debug: 2644 262 bitbang.c:394 bitbang_swd_exchange(): bitbang_swd_exchange
Debug: 2645 262 bitbang.c:394 bitbang_swd_exchange(): bitbang_swd_exchange
Debug: 2646 262 bitbang.c:538 bitbang_swd_write_reg(): OK AP write reg 4 = 00000052
Debug: 2647 262 bitbang.c:394 bitbang_swd_exchange(): bitbang_swd_exchange
Debug: 2648 262 bitbang.c:457 bitbang_swd_read_reg(): bitbang_swd_read_reg
Debug: 2649 262 bitbang.c:394 bitbang_swd_exchange(): bitbang_swd_exchange
Debug: 2650 262 bitbang.c:394 bitbang_swd_exchange(): bitbang_swd_exchange
Debug: 2651 262 bitbang.c:479 bitbang_swd_read_reg(): OK AP read reg 8 = 00000000
Debug: 2652 262 bitbang.c:394 bitbang_swd_exchange(): bitbang_swd_exchange
Debug: 2653 262 bitbang.c:457 bitbang_swd_read_reg(): bitbang_swd_read_reg
Debug: 2654 262 bitbang.c:394 bitbang_swd_exchange(): bitbang_swd_exchange
Debug: 2655 262 bitbang.c:394 bitbang_swd_exchange(): bitbang_swd_exchange
Debug: 2656 262 bitbang.c:479 bitbang_swd_read_reg(): OK DP read reg C = 00000000
Debug: 2657 262 bitbang.c:568 bitbang_swd_run_queue(): bitbang_swd_run_queue
Debug: 2658 262 bitbang.c:394 bitbang_swd_exchange(): bitbang_swd_exchange
Debug: 2659 262 bitbang.c:575 bitbang_swd_run_queue(): SWD queue return value: 00
Debug: 2660 262 bitbang.c:516 bitbang_swd_write_reg(): bitbang_swd_write_reg
Debug: 2661 262 bitbang.c:394 bitbang_swd_exchange(): bitbang_swd_exchange
Debug: 2662 262 bitbang.c:394 bitbang_swd_exchange(): bitbang_swd_exchange
Debug: 2663 262 bitbang.c:394 bitbang_swd_exchange(): bitbang_swd_exchange
Debug: 2664 262 bitbang.c:538 bitbang_swd_write_reg(): OK AP write reg 4 = 00000053
Debug: 2665 262 bitbang.c:394 bitbang_swd_exchange(): bitbang_swd_exchange
Debug: 2666 262 bitbang.c:457 bitbang_swd_read_reg(): bitbang_swd_read_reg
Debug: 2667 262 bitbang.c:394 bitbang_swd_exchange(): bitbang_swd_exchange
Debug: 2668 262 bitbang.c:394 bitbang_swd_exchange(): bitbang_swd_exchange
Debug: 2669 263 bitbang.c:479 bitbang_swd_read_reg(): OK AP read reg 8 = 00000000
Debug: 2670 263 bitbang.c:394 bitbang_swd_exchange(): bitbang_swd_exchange
Debug: 2671 263 bitbang.c:457 bitbang_swd_read_reg(): bitbang_swd_read_reg
Debug: 2672 263 bitbang.c:394 bitbang_swd_exchange(): bitbang_swd_exchange
Debug: 2673 263 bitbang.c:394 bitbang_swd_exchange(): bitbang_swd_exchange
Debug: 2674 263 bitbang.c:479 bitbang_swd_read_reg(): OK DP read reg C = 00000000
Debug: 2675 263 bitbang.c:568 bitbang_swd_run_queue(): bitbang_swd_run_queue
Debug: 2676 263 bitbang.c:394 bitbang_swd_exchange(): bitbang_swd_exchange
Debug: 2677 263 bitbang.c:575 bitbang_swd_run_queue(): SWD queue return value: 00
Debug: 2678 263 armv7m.c:339 armv7m_read_core_reg(): read d9 value 0x0000000000000000
Debug: 2679 263 bitbang.c:516 bitbang_swd_write_reg(): bitbang_swd_write_reg
Debug: 2680 263 bitbang.c:394 bitbang_swd_exchange(): bitbang_swd_exchange
Debug: 2681 263 bitbang.c:394 bitbang_swd_exchange(): bitbang_swd_exchange
Debug: 2682 263 bitbang.c:394 bitbang_swd_exchange(): bitbang_swd_exchange
Debug: 2683 263 bitbang.c:538 bitbang_swd_write_reg(): OK AP write reg 4 = 00000054
Debug: 2684 263 bitbang.c:394 bitbang_swd_exchange(): bitbang_swd_exchange
Debug: 2685 263 bitbang.c:457 bitbang_swd_read_reg(): bitbang_swd_read_reg
Debug: 2686 263 bitbang.c:394 bitbang_swd_exchange(): bitbang_swd_exchange
Debug: 2687 263 bitbang.c:394 bitbang_swd_exchange(): bitbang_swd_exchange
Debug: 2688 263 bitbang.c:479 bitbang_swd_read_reg(): OK AP read reg 8 = 00000000
Debug: 2689 263 bitbang.c:394 bitbang_swd_exchange(): bitbang_swd_exchange
Debug: 2690 263 bitbang.c:457 bitbang_swd_read_reg(): bitbang_swd_read_reg
Debug: 2691 263 bitbang.c:394 bitbang_swd_exchange(): bitbang_swd_exchange
Debug: 2692 263 bitbang.c:394 bitbang_swd_exchange(): bitbang_swd_exchange
Debug: 2693 263 bitbang.c:479 bitbang_swd_read_reg(): OK DP read reg C = 00000000
Debug: 2694 263 bitbang.c:568 bitbang_swd_run_queue(): bitbang_swd_run_queue
Debug: 2695 263 bitbang.c:394 bitbang_swd_exchange(): bitbang_swd_exchange
Debug: 2696 263 bitbang.c:575 bitbang_swd_run_queue(): SWD queue return value: 00
Debug: 2697 263 bitbang.c:516 bitbang_swd_write_reg(): bitbang_swd_write_reg
Debug: 2698 263 bitbang.c:394 bitbang_swd_exchange(): bitbang_swd_exchange
Debug: 2699 263 bitbang.c:394 bitbang_swd_exchange(): bitbang_swd_exchange
Debug: 2700 263 bitbang.c:394 bitbang_swd_exchange(): bitbang_swd_exchange
Debug: 2701 263 bitbang.c:538 bitbang_swd_write_reg(): OK AP write reg 4 = 00000055
Debug: 2702 263 bitbang.c:394 bitbang_swd_exchange(): bitbang_swd_exchange
Debug: 2703 263 bitbang.c:457 bitbang_swd_read_reg(): bitbang_swd_read_reg
Debug: 2704 263 bitbang.c:394 bitbang_swd_exchange(): bitbang_swd_exchange
Debug: 2705 263 bitbang.c:394 bitbang_swd_exchange(): bitbang_swd_exchange
Debug: 2706 264 bitbang.c:479 bitbang_swd_read_reg(): OK AP read reg 8 = 00000000
Debug: 2707 264 bitbang.c:394 bitbang_swd_exchange(): bitbang_swd_exchange
Debug: 2708 264 bitbang.c:457 bitbang_swd_read_reg(): bitbang_swd_read_reg
Debug: 2709 264 bitbang.c:394 bitbang_swd_exchange(): bitbang_swd_exchange
Debug: 2710 264 bitbang.c:394 bitbang_swd_exchange(): bitbang_swd_exchange
Debug: 2711 264 bitbang.c:479 bitbang_swd_read_reg(): OK DP read reg C = 00000000
Debug: 2712 264 bitbang.c:568 bitbang_swd_run_queue(): bitbang_swd_run_queue
Debug: 2713 264 bitbang.c:394 bitbang_swd_exchange(): bitbang_swd_exchange
Debug: 2714 264 bitbang.c:575 bitbang_swd_run_queue(): SWD queue return value: 00
Debug: 2715 264 armv7m.c:339 armv7m_read_core_reg(): read d10 value 0x0000000000000000
Debug: 2716 264 bitbang.c:516 bitbang_swd_write_reg(): bitbang_swd_write_reg
Debug: 2717 264 bitbang.c:394 bitbang_swd_exchange(): bitbang_swd_exchange
Debug: 2718 264 bitbang.c:394 bitbang_swd_exchange(): bitbang_swd_exchange
Debug: 2719 264 bitbang.c:394 bitbang_swd_exchange(): bitbang_swd_exchange
Debug: 2720 264 bitbang.c:538 bitbang_swd_write_reg(): OK AP write reg 4 = 00000056
Debug: 2721 264 bitbang.c:394 bitbang_swd_exchange(): bitbang_swd_exchange
Debug: 2722 264 bitbang.c:457 bitbang_swd_read_reg(): bitbang_swd_read_reg
Debug: 2723 264 bitbang.c:394 bitbang_swd_exchange(): bitbang_swd_exchange
Debug: 2724 264 bitbang.c:394 bitbang_swd_exchange(): bitbang_swd_exchange
Debug: 2725 264 bitbang.c:479 bitbang_swd_read_reg(): OK AP read reg 8 = 00000000
Debug: 2726 264 bitbang.c:394 bitbang_swd_exchange(): bitbang_swd_exchange
Debug: 2727 264 bitbang.c:457 bitbang_swd_read_reg(): bitbang_swd_read_reg
Debug: 2728 264 bitbang.c:394 bitbang_swd_exchange(): bitbang_swd_exchange
Debug: 2729 264 bitbang.c:394 bitbang_swd_exchange(): bitbang_swd_exchange
Debug: 2730 264 bitbang.c:479 bitbang_swd_read_reg(): OK DP read reg C = 00000000
Debug: 2731 264 bitbang.c:568 bitbang_swd_run_queue(): bitbang_swd_run_queue
Debug: 2732 264 bitbang.c:394 bitbang_swd_exchange(): bitbang_swd_exchange
Debug: 2733 264 bitbang.c:575 bitbang_swd_run_queue(): SWD queue return value: 00
Debug: 2734 264 bitbang.c:516 bitbang_swd_write_reg(): bitbang_swd_write_reg
Debug: 2735 264 bitbang.c:394 bitbang_swd_exchange(): bitbang_swd_exchange
Debug: 2736 264 bitbang.c:394 bitbang_swd_exchange(): bitbang_swd_exchange
Debug: 2737 264 bitbang.c:394 bitbang_swd_exchange(): bitbang_swd_exchange
Debug: 2738 264 bitbang.c:538 bitbang_swd_write_reg(): OK AP write reg 4 = 00000057
Debug: 2739 264 bitbang.c:394 bitbang_swd_exchange(): bitbang_swd_exchange
Debug: 2740 264 bitbang.c:457 bitbang_swd_read_reg(): bitbang_swd_read_reg
Debug: 2741 264 bitbang.c:394 bitbang_swd_exchange(): bitbang_swd_exchange
Debug: 2742 264 bitbang.c:394 bitbang_swd_exchange(): bitbang_swd_exchange
Debug: 2743 264 bitbang.c:479 bitbang_swd_read_reg(): OK AP read reg 8 = 00000000
Debug: 2744 265 bitbang.c:394 bitbang_swd_exchange(): bitbang_swd_exchange
Debug: 2745 265 bitbang.c:457 bitbang_swd_read_reg(): bitbang_swd_read_reg
Debug: 2746 265 bitbang.c:394 bitbang_swd_exchange(): bitbang_swd_exchange
Debug: 2747 265 bitbang.c:394 bitbang_swd_exchange(): bitbang_swd_exchange
Debug: 2748 265 bitbang.c:479 bitbang_swd_read_reg(): OK DP read reg C = 00000000
Debug: 2749 265 bitbang.c:568 bitbang_swd_run_queue(): bitbang_swd_run_queue
Debug: 2750 265 bitbang.c:394 bitbang_swd_exchange(): bitbang_swd_exchange
Debug: 2751 265 bitbang.c:575 bitbang_swd_run_queue(): SWD queue return value: 00
Debug: 2752 265 armv7m.c:339 armv7m_read_core_reg(): read d11 value 0x0000000000000000
Debug: 2753 265 bitbang.c:516 bitbang_swd_write_reg(): bitbang_swd_write_reg
Debug: 2754 265 bitbang.c:394 bitbang_swd_exchange(): bitbang_swd_exchange
Debug: 2755 265 bitbang.c:394 bitbang_swd_exchange(): bitbang_swd_exchange
Debug: 2756 265 bitbang.c:394 bitbang_swd_exchange(): bitbang_swd_exchange
Debug: 2757 265 bitbang.c:538 bitbang_swd_write_reg(): OK AP write reg 4 = 00000058
Debug: 2758 265 bitbang.c:394 bitbang_swd_exchange(): bitbang_swd_exchange
Debug: 2759 265 bitbang.c:457 bitbang_swd_read_reg(): bitbang_swd_read_reg
Debug: 2760 265 bitbang.c:394 bitbang_swd_exchange(): bitbang_swd_exchange
Debug: 2761 265 bitbang.c:394 bitbang_swd_exchange(): bitbang_swd_exchange
Debug: 2762 265 bitbang.c:479 bitbang_swd_read_reg(): OK AP read reg 8 = 00000000
Debug: 2763 265 bitbang.c:394 bitbang_swd_exchange(): bitbang_swd_exchange
Debug: 2764 265 bitbang.c:457 bitbang_swd_read_reg(): bitbang_swd_read_reg
Debug: 2765 265 bitbang.c:394 bitbang_swd_exchange(): bitbang_swd_exchange
Debug: 2766 265 bitbang.c:394 bitbang_swd_exchange(): bitbang_swd_exchange
Debug: 2767 265 bitbang.c:479 bitbang_swd_read_reg(): OK DP read reg C = 00000000
Debug: 2768 265 bitbang.c:568 bitbang_swd_run_queue(): bitbang_swd_run_queue
Debug: 2769 265 bitbang.c:394 bitbang_swd_exchange(): bitbang_swd_exchange
Debug: 2770 265 bitbang.c:575 bitbang_swd_run_queue(): SWD queue return value: 00
Debug: 2771 265 bitbang.c:516 bitbang_swd_write_reg(): bitbang_swd_write_reg
Debug: 2772 265 bitbang.c:394 bitbang_swd_exchange(): bitbang_swd_exchange
Debug: 2773 265 bitbang.c:394 bitbang_swd_exchange(): bitbang_swd_exchange
Debug: 2774 265 bitbang.c:394 bitbang_swd_exchange(): bitbang_swd_exchange
Debug: 2775 265 bitbang.c:538 bitbang_swd_write_reg(): OK AP write reg 4 = 00000059
Debug: 2776 265 bitbang.c:394 bitbang_swd_exchange(): bitbang_swd_exchange
Debug: 2777 265 bitbang.c:457 bitbang_swd_read_reg(): bitbang_swd_read_reg
Debug: 2778 265 bitbang.c:394 bitbang_swd_exchange(): bitbang_swd_exchange
Debug: 2779 265 bitbang.c:394 bitbang_swd_exchange(): bitbang_swd_exchange
Debug: 2780 265 bitbang.c:479 bitbang_swd_read_reg(): OK AP read reg 8 = 00000000
Debug: 2781 265 bitbang.c:394 bitbang_swd_exchange(): bitbang_swd_exchange
Debug: 2782 266 bitbang.c:457 bitbang_swd_read_reg(): bitbang_swd_read_reg
Debug: 2783 266 bitbang.c:394 bitbang_swd_exchange(): bitbang_swd_exchange
Debug: 2784 266 bitbang.c:394 bitbang_swd_exchange(): bitbang_swd_exchange
Debug: 2785 266 bitbang.c:479 bitbang_swd_read_reg(): OK DP read reg C = 00000000
Debug: 2786 266 bitbang.c:568 bitbang_swd_run_queue(): bitbang_swd_run_queue
Debug: 2787 266 bitbang.c:394 bitbang_swd_exchange(): bitbang_swd_exchange
Debug: 2788 266 bitbang.c:575 bitbang_swd_run_queue(): SWD queue return value: 00
Debug: 2789 266 armv7m.c:339 armv7m_read_core_reg(): read d12 value 0x0000000000000000
Debug: 2790 266 bitbang.c:516 bitbang_swd_write_reg(): bitbang_swd_write_reg
Debug: 2791 266 bitbang.c:394 bitbang_swd_exchange(): bitbang_swd_exchange
Debug: 2792 266 bitbang.c:394 bitbang_swd_exchange(): bitbang_swd_exchange
Debug: 2793 266 bitbang.c:394 bitbang_swd_exchange(): bitbang_swd_exchange
Debug: 2794 266 bitbang.c:538 bitbang_swd_write_reg(): OK AP write reg 4 = 0000005a
Debug: 2795 266 bitbang.c:394 bitbang_swd_exchange(): bitbang_swd_exchange
Debug: 2796 266 bitbang.c:457 bitbang_swd_read_reg(): bitbang_swd_read_reg
Debug: 2797 266 bitbang.c:394 bitbang_swd_exchange(): bitbang_swd_exchange
Debug: 2798 266 bitbang.c:394 bitbang_swd_exchange(): bitbang_swd_exchange
Debug: 2799 266 bitbang.c:479 bitbang_swd_read_reg(): OK AP read reg 8 = 00000000
Debug: 2800 266 bitbang.c:394 bitbang_swd_exchange(): bitbang_swd_exchange
Debug: 2801 266 bitbang.c:457 bitbang_swd_read_reg(): bitbang_swd_read_reg
Debug: 2802 266 bitbang.c:394 bitbang_swd_exchange(): bitbang_swd_exchange
Debug: 2803 266 bitbang.c:394 bitbang_swd_exchange(): bitbang_swd_exchange
Debug: 2804 266 bitbang.c:479 bitbang_swd_read_reg(): OK DP read reg C = 00000000
Debug: 2805 266 bitbang.c:568 bitbang_swd_run_queue(): bitbang_swd_run_queue
Debug: 2806 266 bitbang.c:394 bitbang_swd_exchange(): bitbang_swd_exchange
Debug: 2807 266 bitbang.c:575 bitbang_swd_run_queue(): SWD queue return value: 00
Debug: 2808 266 bitbang.c:516 bitbang_swd_write_reg(): bitbang_swd_write_reg
Debug: 2809 266 bitbang.c:394 bitbang_swd_exchange(): bitbang_swd_exchange
Debug: 2810 266 bitbang.c:394 bitbang_swd_exchange(): bitbang_swd_exchange
Debug: 2811 266 bitbang.c:394 bitbang_swd_exchange(): bitbang_swd_exchange
Debug: 2812 266 bitbang.c:538 bitbang_swd_write_reg(): OK AP write reg 4 = 0000005b
Debug: 2813 266 bitbang.c:394 bitbang_swd_exchange(): bitbang_swd_exchange
Debug: 2814 266 bitbang.c:457 bitbang_swd_read_reg(): bitbang_swd_read_reg
Debug: 2815 266 bitbang.c:394 bitbang_swd_exchange(): bitbang_swd_exchange
Debug: 2816 266 bitbang.c:394 bitbang_swd_exchange(): bitbang_swd_exchange
Debug: 2817 266 bitbang.c:479 bitbang_swd_read_reg(): OK AP read reg 8 = 00000000
Debug: 2818 266 bitbang.c:394 bitbang_swd_exchange(): bitbang_swd_exchange
Debug: 2819 266 bitbang.c:457 bitbang_swd_read_reg(): bitbang_swd_read_reg
Debug: 2820 266 bitbang.c:394 bitbang_swd_exchange(): bitbang_swd_exchange
Debug: 2821 267 bitbang.c:394 bitbang_swd_exchange(): bitbang_swd_exchange
Debug: 2822 267 bitbang.c:479 bitbang_swd_read_reg(): OK DP read reg C = 00000000
Debug: 2823 267 bitbang.c:568 bitbang_swd_run_queue(): bitbang_swd_run_queue
Debug: 2824 267 bitbang.c:394 bitbang_swd_exchange(): bitbang_swd_exchange
Debug: 2825 267 bitbang.c:575 bitbang_swd_run_queue(): SWD queue return value: 00
Debug: 2826 267 armv7m.c:339 armv7m_read_core_reg(): read d13 value 0x0000000000000000
Debug: 2827 267 bitbang.c:516 bitbang_swd_write_reg(): bitbang_swd_write_reg
Debug: 2828 267 bitbang.c:394 bitbang_swd_exchange(): bitbang_swd_exchange
Debug: 2829 267 bitbang.c:394 bitbang_swd_exchange(): bitbang_swd_exchange
Debug: 2830 267 bitbang.c:394 bitbang_swd_exchange(): bitbang_swd_exchange
Debug: 2831 267 bitbang.c:538 bitbang_swd_write_reg(): OK AP write reg 4 = 0000005c
Debug: 2832 267 bitbang.c:394 bitbang_swd_exchange(): bitbang_swd_exchange
Debug: 2833 267 bitbang.c:457 bitbang_swd_read_reg(): bitbang_swd_read_reg
Debug: 2834 267 bitbang.c:394 bitbang_swd_exchange(): bitbang_swd_exchange
Debug: 2835 267 bitbang.c:394 bitbang_swd_exchange(): bitbang_swd_exchange
Debug: 2836 267 bitbang.c:479 bitbang_swd_read_reg(): OK AP read reg 8 = 00000000
Debug: 2837 267 bitbang.c:394 bitbang_swd_exchange(): bitbang_swd_exchange
Debug: 2838 267 bitbang.c:457 bitbang_swd_read_reg(): bitbang_swd_read_reg
Debug: 2839 267 bitbang.c:394 bitbang_swd_exchange(): bitbang_swd_exchange
Debug: 2840 267 bitbang.c:394 bitbang_swd_exchange(): bitbang_swd_exchange
Debug: 2841 267 bitbang.c:479 bitbang_swd_read_reg(): OK DP read reg C = 00000000
Debug: 2842 267 bitbang.c:568 bitbang_swd_run_queue(): bitbang_swd_run_queue
Debug: 2843 267 bitbang.c:394 bitbang_swd_exchange(): bitbang_swd_exchange
Debug: 2844 267 bitbang.c:575 bitbang_swd_run_queue(): SWD queue return value: 00
Debug: 2845 267 bitbang.c:516 bitbang_swd_write_reg(): bitbang_swd_write_reg
Debug: 2846 267 bitbang.c:394 bitbang_swd_exchange(): bitbang_swd_exchange
Debug: 2847 267 bitbang.c:394 bitbang_swd_exchange(): bitbang_swd_exchange
Debug: 2848 267 bitbang.c:394 bitbang_swd_exchange(): bitbang_swd_exchange
Debug: 2849 267 bitbang.c:538 bitbang_swd_write_reg(): OK AP write reg 4 = 0000005d
Debug: 2850 267 bitbang.c:394 bitbang_swd_exchange(): bitbang_swd_exchange
Debug: 2851 267 bitbang.c:457 bitbang_swd_read_reg(): bitbang_swd_read_reg
Debug: 2852 267 bitbang.c:394 bitbang_swd_exchange(): bitbang_swd_exchange
Debug: 2853 267 bitbang.c:394 bitbang_swd_exchange(): bitbang_swd_exchange
Debug: 2854 267 bitbang.c:479 bitbang_swd_read_reg(): OK AP read reg 8 = 00000000
Debug: 2855 267 bitbang.c:394 bitbang_swd_exchange(): bitbang_swd_exchange
Debug: 2856 267 bitbang.c:457 bitbang_swd_read_reg(): bitbang_swd_read_reg
Debug: 2857 267 bitbang.c:394 bitbang_swd_exchange(): bitbang_swd_exchange
Debug: 2858 267 bitbang.c:394 bitbang_swd_exchange(): bitbang_swd_exchange
Debug: 2859 268 bitbang.c:479 bitbang_swd_read_reg(): OK DP read reg C = 00000000
Debug: 2860 268 bitbang.c:568 bitbang_swd_run_queue(): bitbang_swd_run_queue
Debug: 2861 268 bitbang.c:394 bitbang_swd_exchange(): bitbang_swd_exchange
Debug: 2862 268 bitbang.c:575 bitbang_swd_run_queue(): SWD queue return value: 00
Debug: 2863 268 armv7m.c:339 armv7m_read_core_reg(): read d14 value 0x0000000000000000
Debug: 2864 268 bitbang.c:516 bitbang_swd_write_reg(): bitbang_swd_write_reg
Debug: 2865 268 bitbang.c:394 bitbang_swd_exchange(): bitbang_swd_exchange
Debug: 2866 268 bitbang.c:394 bitbang_swd_exchange(): bitbang_swd_exchange
Debug: 2867 268 bitbang.c:394 bitbang_swd_exchange(): bitbang_swd_exchange
Debug: 2868 268 bitbang.c:538 bitbang_swd_write_reg(): OK AP write reg 4 = 0000005e
Debug: 2869 268 bitbang.c:394 bitbang_swd_exchange(): bitbang_swd_exchange
Debug: 2870 268 bitbang.c:457 bitbang_swd_read_reg(): bitbang_swd_read_reg
Debug: 2871 268 bitbang.c:394 bitbang_swd_exchange(): bitbang_swd_exchange
Debug: 2872 268 bitbang.c:394 bitbang_swd_exchange(): bitbang_swd_exchange
Debug: 2873 268 bitbang.c:479 bitbang_swd_read_reg(): OK AP read reg 8 = 00000000
Debug: 2874 268 bitbang.c:394 bitbang_swd_exchange(): bitbang_swd_exchange
Debug: 2875 268 bitbang.c:457 bitbang_swd_read_reg(): bitbang_swd_read_reg
Debug: 2876 268 bitbang.c:394 bitbang_swd_exchange(): bitbang_swd_exchange
Debug: 2877 268 bitbang.c:394 bitbang_swd_exchange(): bitbang_swd_exchange
Debug: 2878 268 bitbang.c:479 bitbang_swd_read_reg(): OK DP read reg C = 00000000
Debug: 2879 268 bitbang.c:568 bitbang_swd_run_queue(): bitbang_swd_run_queue
Debug: 2880 268 bitbang.c:394 bitbang_swd_exchange(): bitbang_swd_exchange
Debug: 2881 268 bitbang.c:575 bitbang_swd_run_queue(): SWD queue return value: 00
Debug: 2882 268 bitbang.c:516 bitbang_swd_write_reg(): bitbang_swd_write_reg
Debug: 2883 268 bitbang.c:394 bitbang_swd_exchange(): bitbang_swd_exchange
Debug: 2884 268 bitbang.c:394 bitbang_swd_exchange(): bitbang_swd_exchange
Debug: 2885 268 bitbang.c:394 bitbang_swd_exchange(): bitbang_swd_exchange
Debug: 2886 268 bitbang.c:538 bitbang_swd_write_reg(): OK AP write reg 4 = 0000005f
Debug: 2887 268 bitbang.c:394 bitbang_swd_exchange(): bitbang_swd_exchange
Debug: 2888 268 bitbang.c:457 bitbang_swd_read_reg(): bitbang_swd_read_reg
Debug: 2889 268 bitbang.c:394 bitbang_swd_exchange(): bitbang_swd_exchange
Debug: 2890 268 bitbang.c:394 bitbang_swd_exchange(): bitbang_swd_exchange
Debug: 2891 268 bitbang.c:479 bitbang_swd_read_reg(): OK AP read reg 8 = 00000000
Debug: 2892 268 bitbang.c:394 bitbang_swd_exchange(): bitbang_swd_exchange
Debug: 2893 268 bitbang.c:457 bitbang_swd_read_reg(): bitbang_swd_read_reg
Debug: 2894 268 bitbang.c:394 bitbang_swd_exchange(): bitbang_swd_exchange
Debug: 2895 269 bitbang.c:394 bitbang_swd_exchange(): bitbang_swd_exchange
Debug: 2896 269 bitbang.c:479 bitbang_swd_read_reg(): OK DP read reg C = ffffffff
Debug: 2897 269 bitbang.c:568 bitbang_swd_run_queue(): bitbang_swd_run_queue
Debug: 2898 269 bitbang.c:394 bitbang_swd_exchange(): bitbang_swd_exchange
Debug: 2899 269 bitbang.c:575 bitbang_swd_run_queue(): SWD queue return value: 00
Debug: 2900 269 armv7m.c:339 armv7m_read_core_reg(): read d15 value 0xffffffff00000000
Debug: 2901 269 bitbang.c:516 bitbang_swd_write_reg(): bitbang_swd_write_reg
Debug: 2902 269 bitbang.c:394 bitbang_swd_exchange(): bitbang_swd_exchange
Debug: 2903 269 bitbang.c:394 bitbang_swd_exchange(): bitbang_swd_exchange
Debug: 2904 269 bitbang.c:394 bitbang_swd_exchange(): bitbang_swd_exchange
Debug: 2905 269 bitbang.c:538 bitbang_swd_write_reg(): OK AP write reg 4 = 00000021
Debug: 2906 269 bitbang.c:394 bitbang_swd_exchange(): bitbang_swd_exchange
Debug: 2907 269 bitbang.c:457 bitbang_swd_read_reg(): bitbang_swd_read_reg
Debug: 2908 269 bitbang.c:394 bitbang_swd_exchange(): bitbang_swd_exchange
Debug: 2909 269 bitbang.c:394 bitbang_swd_exchange(): bitbang_swd_exchange
Debug: 2910 269 bitbang.c:479 bitbang_swd_read_reg(): OK AP read reg 8 = ffffffff
Debug: 2911 269 bitbang.c:394 bitbang_swd_exchange(): bitbang_swd_exchange
Debug: 2912 269 bitbang.c:457 bitbang_swd_read_reg(): bitbang_swd_read_reg
Debug: 2913 269 bitbang.c:394 bitbang_swd_exchange(): bitbang_swd_exchange
Debug: 2914 269 bitbang.c:394 bitbang_swd_exchange(): bitbang_swd_exchange
Debug: 2915 269 bitbang.c:479 bitbang_swd_read_reg(): OK DP read reg C = 00000000
Debug: 2916 269 bitbang.c:568 bitbang_swd_run_queue(): bitbang_swd_run_queue
Debug: 2917 269 bitbang.c:394 bitbang_swd_exchange(): bitbang_swd_exchange
Debug: 2918 269 bitbang.c:575 bitbang_swd_run_queue(): SWD queue return value: 00
Debug: 2919 269 armv7m.c:341 armv7m_read_core_reg(): read fpscr value 0x00000000
Debug: 2920 269 cortex_m.c:558 cortex_m_debug_entry(): entered debug state in core mode: Thread at PC 0x1ff09abc, cpu in Non-Secure state, target->state: halted
Debug: 2921 269 target.c:1825 target_call_event_callbacks(): target event 0 (gdb-halt) for core stm32h7x.cpu0
Debug: 2922 269 target.c:1825 target_call_event_callbacks(): target event 1 (halted) for core stm32h7x.cpu0
User : 2923 269 armv7m.c:696 armv7m_arch_state(): target halted due to debug-request, current mode: Thread 
xPSR: 0x01000000 pc: 0x1ff09abc msp: 0x24003af8
Debug: 2924 269 command.c:146 script_debug(): command - stm32h7x.cpu0 curstate
Debug: 2925 269 command.c:146 script_debug(): command - stm32h7x.ap2 invoke-event reset-end
Debug: 2926 269 command.c:146 script_debug(): command - stm32h7x.cpu0 invoke-event reset-end
Debug: 2927 269 bitbang.c:457 bitbang_swd_read_reg(): bitbang_swd_read_reg
Debug: 2928 269 bitbang.c:394 bitbang_swd_exchange(): bitbang_swd_exchange
Debug: 2929 270 bitbang.c:394 bitbang_swd_exchange(): bitbang_swd_exchange
Debug: 2930 270 bitbang.c:479 bitbang_swd_read_reg(): OK AP read reg 0 = 00000000
Debug: 2931 270 bitbang.c:394 bitbang_swd_exchange(): bitbang_swd_exchange
Debug: 2932 270 bitbang.c:457 bitbang_swd_read_reg(): bitbang_swd_read_reg
Debug: 2933 270 bitbang.c:394 bitbang_swd_exchange(): bitbang_swd_exchange
Debug: 2934 270 bitbang.c:394 bitbang_swd_exchange(): bitbang_swd_exchange
Debug: 2935 270 bitbang.c:479 bitbang_swd_read_reg(): OK DP read reg C = 00030003
Debug: 2936 270 bitbang.c:568 bitbang_swd_run_queue(): bitbang_swd_run_queue
Debug: 2937 270 bitbang.c:394 bitbang_swd_exchange(): bitbang_swd_exchange
Debug: 2938 270 bitbang.c:575 bitbang_swd_run_queue(): SWD queue return value: 00
Debug: 2939 270 command.c:146 script_debug(): command - init
Debug: 2940 270 bitbang.c:457 bitbang_swd_read_reg(): bitbang_swd_read_reg
Debug: 2941 270 bitbang.c:394 bitbang_swd_exchange(): bitbang_swd_exchange
Debug: 2942 270 bitbang.c:394 bitbang_swd_exchange(): bitbang_swd_exchange
Debug: 2943 270 bitbang.c:479 bitbang_swd_read_reg(): OK AP read reg 0 = 00030003
Debug: 2944 270 bitbang.c:394 bitbang_swd_exchange(): bitbang_swd_exchange
Debug: 2945 270 bitbang.c:457 bitbang_swd_read_reg(): bitbang_swd_read_reg
Debug: 2946 270 bitbang.c:394 bitbang_swd_exchange(): bitbang_swd_exchange
Debug: 2947 270 bitbang.c:394 bitbang_swd_exchange(): bitbang_swd_exchange
Debug: 2948 270 bitbang.c:479 bitbang_swd_read_reg(): OK DP read reg C = 00030003
Debug: 2949 270 bitbang.c:568 bitbang_swd_run_queue(): bitbang_swd_run_queue
Debug: 2950 270 bitbang.c:394 bitbang_swd_exchange(): bitbang_swd_exchange
Debug: 2951 270 bitbang.c:575 bitbang_swd_run_queue(): SWD queue return value: 00
Debug: 2953 270 command.c:146 script_debug(): command - halt
Debug: 2954 270 bitbang.c:457 bitbang_swd_read_reg(): bitbang_swd_read_reg
Debug: 2955 270 bitbang.c:394 bitbang_swd_exchange(): bitbang_swd_exchange
Debug: 2956 270 bitbang.c:394 bitbang_swd_exchange(): bitbang_swd_exchange
Debug: 2957 270 bitbang.c:479 bitbang_swd_read_reg(): OK AP read reg 0 = 00030003
Debug: 2958 270 bitbang.c:394 bitbang_swd_exchange(): bitbang_swd_exchange
Debug: 2959 270 bitbang.c:457 bitbang_swd_read_reg(): bitbang_swd_read_reg
Debug: 2960 270 bitbang.c:394 bitbang_swd_exchange(): bitbang_swd_exchange
Debug: 2961 270 bitbang.c:394 bitbang_swd_exchange(): bitbang_swd_exchange
Debug: 2962 271 bitbang.c:479 bitbang_swd_read_reg(): OK DP read reg C = 00030003
Debug: 2963 271 bitbang.c:568 bitbang_swd_run_queue(): bitbang_swd_run_queue
Debug: 2964 271 bitbang.c:394 bitbang_swd_exchange(): bitbang_swd_exchange
Debug: 2965 271 bitbang.c:575 bitbang_swd_run_queue(): SWD queue return value: 00
Debug: 2967 271 target.c:3260 handle_halt_command(): -
Debug: 2968 271 cortex_m.c:681 cortex_m_halt(): target->state: halted
Debug: 2969 271 cortex_m.c:685 cortex_m_halt(): target was already halted
Debug: 2970 271 bitbang.c:457 bitbang_swd_read_reg(): bitbang_swd_read_reg
Debug: 2971 271 bitbang.c:394 bitbang_swd_exchange(): bitbang_swd_exchange
Debug: 2972 271 bitbang.c:394 bitbang_swd_exchange(): bitbang_swd_exchange
Debug: 2973 271 bitbang.c:479 bitbang_swd_read_reg(): OK AP read reg 0 = 00030003
Debug: 2974 271 bitbang.c:394 bitbang_swd_exchange(): bitbang_swd_exchange
Debug: 2975 271 bitbang.c:457 bitbang_swd_read_reg(): bitbang_swd_read_reg
Debug: 2976 271 bitbang.c:394 bitbang_swd_exchange(): bitbang_swd_exchange
Debug: 2977 271 bitbang.c:394 bitbang_swd_exchange(): bitbang_swd_exchange
Debug: 2978 271 bitbang.c:479 bitbang_swd_read_reg(): OK DP read reg C = 00030003
Debug: 2979 271 bitbang.c:568 bitbang_swd_run_queue(): bitbang_swd_run_queue
Debug: 2980 271 bitbang.c:394 bitbang_swd_exchange(): bitbang_swd_exchange
Debug: 2981 271 bitbang.c:575 bitbang_swd_run_queue(): SWD queue return value: 00
Debug: 2982 271 command.c:146 script_debug(): command - reg pc
Debug: 2983 271 bitbang.c:457 bitbang_swd_read_reg(): bitbang_swd_read_reg
Debug: 2984 271 bitbang.c:394 bitbang_swd_exchange(): bitbang_swd_exchange
Debug: 2985 271 bitbang.c:394 bitbang_swd_exchange(): bitbang_swd_exchange
Debug: 2986 271 bitbang.c:479 bitbang_swd_read_reg(): OK AP read reg 0 = 00030003
Debug: 2987 271 bitbang.c:394 bitbang_swd_exchange(): bitbang_swd_exchange
Debug: 2988 271 bitbang.c:457 bitbang_swd_read_reg(): bitbang_swd_read_reg
Debug: 2989 271 bitbang.c:394 bitbang_swd_exchange(): bitbang_swd_exchange
Debug: 2990 271 bitbang.c:394 bitbang_swd_exchange(): bitbang_swd_exchange
Debug: 2991 271 bitbang.c:479 bitbang_swd_read_reg(): OK DP read reg C = 00030003
Debug: 2992 271 bitbang.c:568 bitbang_swd_run_queue(): bitbang_swd_run_queue
Debug: 2993 271 bitbang.c:394 bitbang_swd_exchange(): bitbang_swd_exchange
Debug: 2994 271 bitbang.c:575 bitbang_swd_run_queue(): SWD queue return value: 00
Debug: 2996 271 target.c:3054 handle_reg_command(): -
Debug: 2997 271 command.c:146 script_debug(): command - shutdown
Debug: 2998 271 bitbang.c:457 bitbang_swd_read_reg(): bitbang_swd_read_reg
Debug: 2999 271 bitbang.c:394 bitbang_swd_exchange(): bitbang_swd_exchange
Debug: 3000 271 bitbang.c:394 bitbang_swd_exchange(): bitbang_swd_exchange
Debug: 3001 271 bitbang.c:479 bitbang_swd_read_reg(): OK AP read reg 0 = 00030003
Debug: 3002 271 bitbang.c:394 bitbang_swd_exchange(): bitbang_swd_exchange
Debug: 3003 271 bitbang.c:457 bitbang_swd_read_reg(): bitbang_swd_read_reg
Debug: 3004 272 bitbang.c:394 bitbang_swd_exchange(): bitbang_swd_exchange
Debug: 3005 272 bitbang.c:394 bitbang_swd_exchange(): bitbang_swd_exchange
Debug: 3006 272 bitbang.c:479 bitbang_swd_read_reg(): OK DP read reg C = 00030003
Debug: 3007 272 bitbang.c:568 bitbang_swd_run_queue(): bitbang_swd_run_queue
Debug: 3008 272 bitbang.c:394 bitbang_swd_exchange(): bitbang_swd_exchange
Debug: 3009 272 bitbang.c:575 bitbang_swd_run_queue(): SWD queue return value: 00
User : 3011 272 server.c:755 handle_shutdown_command(): shutdown command invoked
Debug: 3012 272 mem_ap.c:70 mem_ap_deinit_target(): mem_ap_deinit_target
Debug: 3013 272 target.c:2172 target_free_all_working_areas_restore(): freeing all working areas
Debug: 3014 272 target.c:2172 target_free_all_working_areas_restore(): freeing all working areas
Debug: 3015 272 bitbang.c:426 bitbang_swd_switch_seq(): bitbang_swd_switch_seq
Debug: 3016 272 bitbang.c:438 bitbang_swd_switch_seq(): SWD-to-JTAG
Debug: 3017 272 bitbang.c:394 bitbang_swd_exchange(): bitbang_swd_exchange
Debug: 3018 272 bitbang.c:568 bitbang_swd_run_queue(): bitbang_swd_run_queue
Debug: 3019 272 bitbang.c:394 bitbang_swd_exchange(): bitbang_swd_exchange
Debug: 3020 272 bitbang.c:575 bitbang_swd_run_queue(): SWD queue return value: 00
