7[r[999;999H[6nOpen On-Chip Debugger 0.11.0-dirty (2025-07-14-18:35)
Licensed under GNU GPL v2
For bug reports, read
	http://openocd.org/doc/doxygen/bugs.html
User : 13 14 options.c:63 configuration_output_handler(): debug_level: 3
User : 14 14 options.c:63 configuration_output_handler(): 
Debug: 15 14 options.c:244 add_default_dirs(): bindir=/usr/bin
Debug: 16 14 options.c:245 add_default_dirs(): pkgdatadir=/usr/share/openocd
Debug: 17 14 options.c:246 add_default_dirs(): exepath=/usr/bin
Debug: 18 14 options.c:247 add_default_dirs(): bin2data=../share/openocd
Debug: 19 14 configuration.c:42 add_script_search_dir(): adding /var/rootdirs/home/root/.config/openocd
Debug: 20 14 configuration.c:42 add_script_search_dir(): adding /var/rootdirs/home/root/.openocd
Debug: 21 14 configuration.c:42 add_script_search_dir(): adding /usr/bin/../share/openocd/site
Debug: 22 14 configuration.c:42 add_script_search_dir(): adding /usr/bin/../share/openocd/scripts
Debug: 23 14 configuration.c:97 find_file(): found /usr/arduino/extra/openocd_script-imx_gpio.cfg
Debug: 24 15 command.c:146 script_debug(): command - adapter driver imx_gpio
Debug: 26 15 command.c:146 script_debug(): command - imx_gpio_peripheral_base 0x30200000
Debug: 28 15 command.c:146 script_debug(): command - imx_gpio_speed_coeffs 500000 50
Debug: 30 15 command.c:146 script_debug(): command - imx_gpio_swd_nums 15 8
Debug: 32 15 command.c:146 script_debug(): command - imx_gpio_srst_num 10
Debug: 34 15 command.c:146 script_debug(): command - reset_config srst_only srst_push_pull
Debug: 36 16 command.c:146 script_debug(): command - transport select swd
Debug: 37 16 bitbang.c:388 bitbang_swd_init(): bitbang_swd_init
Debug: 38 21 configuration.c:97 find_file(): found /usr/bin/../share/openocd/scripts/target/stm32h7x_dual_bank.cfg
Debug: 39 22 configuration.c:97 find_file(): found /usr/bin/../share/openocd/scripts/target/stm32h7x.cfg
Debug: 40 23 configuration.c:97 find_file(): found /usr/bin/../share/openocd/scripts/target/swj-dp.tcl
Debug: 41 24 command.c:146 script_debug(): command - transport select
Debug: 42 24 configuration.c:97 find_file(): found /usr/bin/../share/openocd/scripts/mem_helper.tcl
Debug: 43 25 command.c:146 script_debug(): command - add_usage_text mrw address
Debug: 45 25 command.c:1115 help_add_command(): added 'mrw' help text
Debug: 46 25 command.c:146 script_debug(): command - add_help_text mrw Returns value of word in memory.
Debug: 48 25 command.c:1128 help_add_command(): added 'mrw' help text
Debug: 49 25 command.c:146 script_debug(): command - add_usage_text mrh address
Debug: 51 25 command.c:1115 help_add_command(): added 'mrh' help text
Debug: 52 25 command.c:146 script_debug(): command - add_help_text mrh Returns value of halfword in memory.
Debug: 54 25 command.c:1128 help_add_command(): added 'mrh' help text
Debug: 55 25 command.c:146 script_debug(): command - add_usage_text mrb address
Debug: 57 25 command.c:1115 help_add_command(): added 'mrb' help text
Debug: 58 25 command.c:146 script_debug(): command - add_help_text mrb Returns value of byte in memory.
Debug: 60 25 command.c:1128 help_add_command(): added 'mrb' help text
Debug: 61 25 command.c:146 script_debug(): command - add_usage_text mmw address setbits clearbits
Debug: 63 25 command.c:1115 help_add_command(): added 'mmw' help text
Debug: 64 25 command.c:146 script_debug(): command - add_help_text mmw Modify word in memory. new_val = (old_val & ~clearbits) | setbits;
Debug: 66 25 command.c:1128 help_add_command(): added 'mmw' help text
Debug: 67 25 command.c:146 script_debug(): command - transport select
Debug: 68 25 command.c:146 script_debug(): command - transport select
Debug: 69 26 command.c:146 script_debug(): command - transport select
Debug: 70 26 command.c:146 script_debug(): command - swd newdap stm32h7x cpu -irlen 4 -ircapture 0x1 -irmask 0xf -expected-id 0x6ba02477
Debug: 71 26 tcl.c:572 jim_newtap_cmd(): Creating New Tap, Chip: stm32h7x, Tap: cpu, Dotted: stm32h7x.cpu, 8 params
Debug: 72 26 core.c:1488 jtag_tap_init(): Created Tap: stm32h7x.cpu @ abs position 0, irlen 0, capture: 0x0 mask: 0x0
Debug: 73 26 command.c:146 script_debug(): command - dap create stm32h7x.dap -chain-position stm32h7x.cpu
Debug: 74 26 command.c:146 script_debug(): command - transport select
Debug: 75 26 command.c:146 script_debug(): command - transport select
Debug: 76 26 command.c:146 script_debug(): command - target create stm32h7x.ap2 mem_ap -dap stm32h7x.dap -ap-num 2
Debug: 77 26 command.c:146 script_debug(): command - target create stm32h7x.cpu0 cortex_m -endian little -dap stm32h7x.dap -ap-num 0
Debug: 78 27 command.c:376 register_command(): command 'rtt' is already registered in '<global>' context
Debug: 79 28 command.c:146 script_debug(): command - stm32h7x.cpu0 configure -work-area-phys 0x20000000 -work-area-size 0x10000 -work-area-backup 0
Debug: 80 28 target.c:2172 target_free_all_working_areas_restore(): freeing all working areas
Debug: 81 28 target.c:2172 target_free_all_working_areas_restore(): freeing all working areas
Debug: 82 28 target.c:2172 target_free_all_working_areas_restore(): freeing all working areas
Debug: 83 28 command.c:146 script_debug(): command - flash bank stm32h7x.bank1.cpu0 stm32h7x 0x08000000 0 0 0 stm32h7x.cpu0
Debug: 85 29 tcl.c:1319 handle_flash_bank_command(): 'stm32h7x' driver usage field missing
Debug: 86 29 command.c:146 script_debug(): command - flash bank stm32h7x.bank2.cpu0 stm32h7x 0x08100000 0 0 0 stm32h7x.cpu0
Debug: 88 29 command.c:376 register_command(): command 'stm32h7x' is already registered in '<global>' context
Debug: 89 29 command.c:376 register_command(): command 'lock' is already registered in 'stm32h7x' context
Debug: 90 29 command.c:376 register_command(): command 'unlock' is already registered in 'stm32h7x' context
Debug: 91 29 command.c:376 register_command(): command 'mass_erase' is already registered in 'stm32h7x' context
Debug: 92 29 command.c:376 register_command(): command 'option_read' is already registered in 'stm32h7x' context
Debug: 93 29 command.c:376 register_command(): command 'option_write' is already registered in 'stm32h7x' context
Debug: 94 29 tcl.c:1319 handle_flash_bank_command(): 'stm32h7x' driver usage field missing
Debug: 95 29 command.c:146 script_debug(): command - targets stm32h7x.cpu0
Debug: 97 29 command.c:146 script_debug(): command - adapter speed 1800
Debug: 99 29 core.c:1822 jtag_config_khz(): handle jtag khz
Debug: 100 29 core.c:1785 adapter_khz_to_speed(): convert khz to interface specific speed value
Debug: 101 29 core.c:1785 adapter_khz_to_speed(): convert khz to interface specific speed value
Debug: 102 29 command.c:146 script_debug(): command - adapter srst delay 100
Debug: 104 29 command.c:146 script_debug(): command - transport select
Debug: 105 29 command.c:146 script_debug(): command - reset_config srst_only srst_nogate
Debug: 107 29 command.c:146 script_debug(): command - transport select
Debug: 108 29 command.c:146 script_debug(): command - stm32h7x.cpu0 cortex_m reset_config sysresetreq
Debug: 110 29 command.c:146 script_debug(): command - stm32h7x.dap apcsw 0x08000000 0x08000000
Debug: 112 30 command.c:146 script_debug(): command - stm32h7x.cpu0 configure -event examine-end 
	# Enable D3 and D1 DBG clocks
	# DBGMCU_CR |= D3DBGCKEN | D1DBGCKEN
	stm32h7x_dbgmcu_mmw 0x004 0x00600000 0

	# Enable debug during low power modes (uses more power)
	# DBGMCU_CR |= DBG_STANDBY | DBG_STOP | DBG_SLEEP D1 Domain
	stm32h7x_dbgmcu_mmw 0x004 0x00000007 0
	# DBGMCU_CR |= DBG_STANDBY | DBG_STOP | DBG_SLEEP D2 Domain
	stm32h7x_dbgmcu_mmw 0x004 0x00000038 0

	# Stop watchdog counters during halt
	# DBGMCU_APB3FZ1 |= WWDG1
	stm32h7x_dbgmcu_mmw 0x034 0x00000040 0
	# DBGMCU_APB1LFZ1 |= WWDG2
	stm32h7x_dbgmcu_mmw 0x03C 0x00000800 0
	# DBGMCU_APB4FZ1 |= WDGLSD1 | WDGLSD2
	stm32h7x_dbgmcu_mmw 0x054 0x000C0000 0

Debug: 113 30 command.c:146 script_debug(): command - stm32h7x.cpu0 configure -event trace-config 
	# Set TRACECLKEN; TRACE_MODE is set to async; when using sync
	# change this value accordingly to configure trace pins
	# assignment
	stm32h7x_dbgmcu_mmw 0x004 0x00100000 0

Debug: 114 30 command.c:146 script_debug(): command - stm32h7x.cpu0 configure -event reset-init 
	# Clock after reset is HSI at 64 MHz, no need of PLL
	adapter speed 4000

Debug: 115 30 command.c:146 script_debug(): command - init
Debug: 117 30 command.c:146 script_debug(): command - target init
Debug: 119 30 command.c:146 script_debug(): command - target names
Debug: 120 30 command.c:146 script_debug(): command - stm32h7x.ap2 cget -event gdb-flash-erase-start
Debug: 121 30 command.c:146 script_debug(): command - stm32h7x.ap2 configure -event gdb-flash-erase-start reset init
Debug: 122 30 command.c:146 script_debug(): command - stm32h7x.ap2 cget -event gdb-flash-write-end
Debug: 123 30 command.c:146 script_debug(): command - stm32h7x.ap2 configure -event gdb-flash-write-end reset halt
Debug: 124 30 command.c:146 script_debug(): command - stm32h7x.ap2 cget -event gdb-attach
Debug: 125 30 command.c:146 script_debug(): command - stm32h7x.ap2 configure -event gdb-attach halt 1000
Debug: 126 30 command.c:146 script_debug(): command - stm32h7x.cpu0 cget -event gdb-flash-erase-start
Debug: 127 30 command.c:146 script_debug(): command - stm32h7x.cpu0 configure -event gdb-flash-erase-start reset init
Debug: 128 30 command.c:146 script_debug(): command - stm32h7x.cpu0 cget -event gdb-flash-write-end
Debug: 129 30 command.c:146 script_debug(): command - stm32h7x.cpu0 configure -event gdb-flash-write-end reset halt
Debug: 130 30 command.c:146 script_debug(): command - stm32h7x.cpu0 cget -event gdb-attach
Debug: 131 30 command.c:146 script_debug(): command - stm32h7x.cpu0 configure -event gdb-attach halt 1000
Debug: 132 30 target.c:1639 handle_target_init_command(): Initializing targets...
Debug: 133 30 mem_ap.c:63 mem_ap_init_target(): mem_ap_init_target
Debug: 134 31 semihosting_common.c:99 semihosting_common_init():  
Info : 135 31 imx_gpio.c:480 imx_gpio_init(): imx_gpio GPIO JTAG/SWD bitbang driver
Info : 136 31 imx_gpio.c:499 imx_gpio_init(): imx_gpio mmap: pagesize: 4096, regionsize: 131072
Debug: 137 31 imx_gpio.c:554 imx_gpio_init(): saved pinmux settings: tck 0 tms 0 tdi 0 tdo 0 trst 0 srst 0
Debug: 138 31 core.c:1785 adapter_khz_to_speed(): convert khz to interface specific speed value
Debug: 139 31 core.c:1789 adapter_khz_to_speed(): have interface set up
Debug: 140 31 core.c:1785 adapter_khz_to_speed(): convert khz to interface specific speed value
Debug: 141 31 core.c:1789 adapter_khz_to_speed(): have interface set up
Info : 142 31 core.c:1565 adapter_init(): clock speed 1805 kHz
Debug: 143 31 openocd.c:143 handle_init_command(): Debug Adapter init complete
Debug: 144 31 command.c:146 script_debug(): command - transport init
Debug: 146 31 transport.c:229 handle_transport_init(): handle_transport_init
Debug: 147 31 command.c:146 script_debug(): command - dap init
Debug: 149 31 arm_dap.c:106 dap_init_all(): Initializing all DAPs ...
Debug: 150 31 bitbang.c:426 bitbang_swd_switch_seq(): bitbang_swd_switch_seq
Debug: 151 31 bitbang.c:434 bitbang_swd_switch_seq(): JTAG-to-SWD
Debug: 152 31 bitbang.c:394 bitbang_swd_exchange(): bitbang_swd_exchange
Debug: 153 32 bitbang.c:457 bitbang_swd_read_reg(): bitbang_swd_read_reg
Debug: 154 32 bitbang.c:394 bitbang_swd_exchange(): bitbang_swd_exchange
Debug: 155 32 bitbang.c:394 bitbang_swd_exchange(): bitbang_swd_exchange
Debug: 156 32 bitbang.c:484 bitbang_swd_read_reg(): JUNK DP read reg 0 = ffffffff
Debug: 157 32 bitbang.c:507 bitbang_swd_read_reg(): No valid acknowledge: ack=7
Debug: 158 32 bitbang.c:568 bitbang_swd_run_queue(): bitbang_swd_run_queue
Debug: 159 32 bitbang.c:394 bitbang_swd_exchange(): bitbang_swd_exchange
Debug: 160 32 bitbang.c:575 bitbang_swd_run_queue(): SWD queue return value: 07
Debug: 161 33 bitbang.c:426 bitbang_swd_switch_seq(): bitbang_swd_switch_seq
Debug: 162 33 bitbang.c:434 bitbang_swd_switch_seq(): JTAG-to-SWD
Debug: 163 33 bitbang.c:394 bitbang_swd_exchange(): bitbang_swd_exchange
Debug: 164 34 bitbang.c:457 bitbang_swd_read_reg(): bitbang_swd_read_reg
Debug: 165 34 bitbang.c:394 bitbang_swd_exchange(): bitbang_swd_exchange
Debug: 166 34 bitbang.c:394 bitbang_swd_exchange(): bitbang_swd_exchange
Debug: 167 34 bitbang.c:484 bitbang_swd_read_reg(): JUNK DP read reg 0 = ffffffff
Debug: 168 34 bitbang.c:507 bitbang_swd_read_reg(): No valid acknowledge: ack=7
Debug: 169 34 bitbang.c:568 bitbang_swd_run_queue(): bitbang_swd_run_queue
Debug: 170 34 bitbang.c:394 bitbang_swd_exchange(): bitbang_swd_exchange
Debug: 171 34 bitbang.c:575 bitbang_swd_run_queue(): SWD queue return value: 07
Debug: 172 35 bitbang.c:426 bitbang_swd_switch_seq(): bitbang_swd_switch_seq
Debug: 173 35 bitbang.c:434 bitbang_swd_switch_seq(): JTAG-to-SWD
Debug: 174 35 bitbang.c:394 bitbang_swd_exchange(): bitbang_swd_exchange
Debug: 175 35 bitbang.c:457 bitbang_swd_read_reg(): bitbang_swd_read_reg
Debug: 176 35 bitbang.c:394 bitbang_swd_exchange(): bitbang_swd_exchange
Debug: 177 35 bitbang.c:394 bitbang_swd_exchange(): bitbang_swd_exchange
Debug: 178 35 bitbang.c:484 bitbang_swd_read_reg(): JUNK DP read reg 0 = ffffffff
Debug: 179 35 bitbang.c:507 bitbang_swd_read_reg(): No valid acknowledge: ack=7
Debug: 180 35 bitbang.c:568 bitbang_swd_run_queue(): bitbang_swd_run_queue
Debug: 181 35 bitbang.c:394 bitbang_swd_exchange(): bitbang_swd_exchange
Debug: 182 35 bitbang.c:575 bitbang_swd_run_queue(): SWD queue return value: 07
Debug: 183 37 bitbang.c:426 bitbang_swd_switch_seq(): bitbang_swd_switch_seq
Debug: 184 37 bitbang.c:434 bitbang_swd_switch_seq(): JTAG-to-SWD
Debug: 185 37 bitbang.c:394 bitbang_swd_exchange(): bitbang_swd_exchange
Debug: 186 37 bitbang.c:457 bitbang_swd_read_reg(): bitbang_swd_read_reg
Debug: 187 37 bitbang.c:394 bitbang_swd_exchange(): bitbang_swd_exchange
Debug: 188 37 bitbang.c:394 bitbang_swd_exchange(): bitbang_swd_exchange
Debug: 189 37 bitbang.c:484 bitbang_swd_read_reg(): JUNK DP read reg 0 = ffffffff
Debug: 190 37 bitbang.c:507 bitbang_swd_read_reg(): No valid acknowledge: ack=7
Debug: 191 37 bitbang.c:568 bitbang_swd_run_queue(): bitbang_swd_run_queue
Debug: 192 37 bitbang.c:394 bitbang_swd_exchange(): bitbang_swd_exchange
Debug: 193 37 bitbang.c:575 bitbang_swd_run_queue(): SWD queue return value: 07
Debug: 194 38 bitbang.c:426 bitbang_swd_switch_seq(): bitbang_swd_switch_seq
Debug: 195 38 bitbang.c:434 bitbang_swd_switch_seq(): JTAG-to-SWD
Debug: 196 38 bitbang.c:394 bitbang_swd_exchange(): bitbang_swd_exchange
Debug: 197 39 bitbang.c:457 bitbang_swd_read_reg(): bitbang_swd_read_reg
Debug: 198 39 bitbang.c:394 bitbang_swd_exchange(): bitbang_swd_exchange
Debug: 199 39 bitbang.c:394 bitbang_swd_exchange(): bitbang_swd_exchange
Debug: 200 39 bitbang.c:484 bitbang_swd_read_reg(): JUNK DP read reg 0 = ffffffff
Debug: 201 39 bitbang.c:507 bitbang_swd_read_reg(): No valid acknowledge: ack=7
Debug: 202 39 bitbang.c:568 bitbang_swd_run_queue(): bitbang_swd_run_queue
Debug: 203 39 bitbang.c:394 bitbang_swd_exchange(): bitbang_swd_exchange
Debug: 204 39 bitbang.c:575 bitbang_swd_run_queue(): SWD queue return value: 07
Debug: 205 40 bitbang.c:426 bitbang_swd_switch_seq(): bitbang_swd_switch_seq
Debug: 206 40 bitbang.c:434 bitbang_swd_switch_seq(): JTAG-to-SWD
Debug: 207 40 bitbang.c:394 bitbang_swd_exchange(): bitbang_swd_exchange
Debug: 208 40 bitbang.c:457 bitbang_swd_read_reg(): bitbang_swd_read_reg
Debug: 209 40 bitbang.c:394 bitbang_swd_exchange(): bitbang_swd_exchange
Debug: 210 40 bitbang.c:394 bitbang_swd_exchange(): bitbang_swd_exchange
Debug: 211 41 bitbang.c:484 bitbang_swd_read_reg(): JUNK DP read reg 0 = ffffffff
Debug: 212 41 bitbang.c:507 bitbang_swd_read_reg(): No valid acknowledge: ack=7
Debug: 213 41 bitbang.c:568 bitbang_swd_run_queue(): bitbang_swd_run_queue
Debug: 214 41 bitbang.c:394 bitbang_swd_exchange(): bitbang_swd_exchange
Debug: 215 41 bitbang.c:575 bitbang_swd_run_queue(): SWD queue return value: 07
Debug: 216 42 bitbang.c:426 bitbang_swd_switch_seq(): bitbang_swd_switch_seq
Debug: 217 42 bitbang.c:434 bitbang_swd_switch_seq(): JTAG-to-SWD
Debug: 218 42 bitbang.c:394 bitbang_swd_exchange(): bitbang_swd_exchange
Debug: 219 42 bitbang.c:457 bitbang_swd_read_reg(): bitbang_swd_read_reg
Debug: 220 42 bitbang.c:394 bitbang_swd_exchange(): bitbang_swd_exchange
Debug: 221 42 bitbang.c:394 bitbang_swd_exchange(): bitbang_swd_exchange
Debug: 222 42 bitbang.c:484 bitbang_swd_read_reg(): JUNK DP read reg 0 = ffffffff
Debug: 223 42 bitbang.c:507 bitbang_swd_read_reg(): No valid acknowledge: ack=7
Debug: 224 42 bitbang.c:568 bitbang_swd_run_queue(): bitbang_swd_run_queue
Debug: 225 42 bitbang.c:394 bitbang_swd_exchange(): bitbang_swd_exchange
Debug: 226 42 bitbang.c:575 bitbang_swd_run_queue(): SWD queue return value: 07
Debug: 227 43 bitbang.c:426 bitbang_swd_switch_seq(): bitbang_swd_switch_seq
Debug: 228 43 bitbang.c:434 bitbang_swd_switch_seq(): JTAG-to-SWD
Debug: 229 44 bitbang.c:394 bitbang_swd_exchange(): bitbang_swd_exchange
Debug: 230 44 bitbang.c:457 bitbang_swd_read_reg(): bitbang_swd_read_reg
Debug: 231 44 bitbang.c:394 bitbang_swd_exchange(): bitbang_swd_exchange
Debug: 232 44 bitbang.c:394 bitbang_swd_exchange(): bitbang_swd_exchange
Debug: 233 44 bitbang.c:484 bitbang_swd_read_reg(): JUNK DP read reg 0 = ffffffff
Debug: 234 44 bitbang.c:507 bitbang_swd_read_reg(): No valid acknowledge: ack=7
Debug: 235 44 bitbang.c:568 bitbang_swd_run_queue(): bitbang_swd_run_queue
Debug: 236 44 bitbang.c:394 bitbang_swd_exchange(): bitbang_swd_exchange
Debug: 237 44 bitbang.c:575 bitbang_swd_run_queue(): SWD queue return value: 07
Debug: 238 45 bitbang.c:426 bitbang_swd_switch_seq(): bitbang_swd_switch_seq
Debug: 239 45 bitbang.c:434 bitbang_swd_switch_seq(): JTAG-to-SWD
Debug: 240 45 bitbang.c:394 bitbang_swd_exchange(): bitbang_swd_exchange
Debug: 241 46 bitbang.c:457 bitbang_swd_read_reg(): bitbang_swd_read_reg
Debug: 242 46 bitbang.c:394 bitbang_swd_exchange(): bitbang_swd_exchange
Debug: 243 46 bitbang.c:394 bitbang_swd_exchange(): bitbang_swd_exchange
Debug: 244 46 bitbang.c:484 bitbang_swd_read_reg(): JUNK DP read reg 0 = ffffffff
Debug: 245 46 bitbang.c:507 bitbang_swd_read_reg(): No valid acknowledge: ack=7
Debug: 246 46 bitbang.c:568 bitbang_swd_run_queue(): bitbang_swd_run_queue
Debug: 247 46 bitbang.c:394 bitbang_swd_exchange(): bitbang_swd_exchange
Debug: 248 46 bitbang.c:575 bitbang_swd_run_queue(): SWD queue return value: 07
Debug: 249 47 bitbang.c:426 bitbang_swd_switch_seq(): bitbang_swd_switch_seq
Debug: 250 47 bitbang.c:434 bitbang_swd_switch_seq(): JTAG-to-SWD
Debug: 251 47 bitbang.c:394 bitbang_swd_exchange(): bitbang_swd_exchange
Debug: 252 47 bitbang.c:457 bitbang_swd_read_reg(): bitbang_swd_read_reg
Debug: 253 47 bitbang.c:394 bitbang_swd_exchange(): bitbang_swd_exchange
Debug: 254 47 bitbang.c:394 bitbang_swd_exchange(): bitbang_swd_exchange
Debug: 255 48 bitbang.c:484 bitbang_swd_read_reg(): JUNK DP read reg 0 = ffffffff
Debug: 256 48 bitbang.c:507 bitbang_swd_read_reg(): No valid acknowledge: ack=7
Debug: 257 48 bitbang.c:568 bitbang_swd_run_queue(): bitbang_swd_run_queue
Debug: 258 48 bitbang.c:394 bitbang_swd_exchange(): bitbang_swd_exchange
Debug: 259 48 bitbang.c:575 bitbang_swd_run_queue(): SWD queue return value: 07
Debug: 260 49 bitbang.c:426 bitbang_swd_switch_seq(): bitbang_swd_switch_seq
Debug: 261 49 bitbang.c:434 bitbang_swd_switch_seq(): JTAG-to-SWD
Debug: 262 49 bitbang.c:394 bitbang_swd_exchange(): bitbang_swd_exchange
Debug: 263 49 bitbang.c:457 bitbang_swd_read_reg(): bitbang_swd_read_reg
Debug: 264 49 bitbang.c:394 bitbang_swd_exchange(): bitbang_swd_exchange
Debug: 265 49 bitbang.c:394 bitbang_swd_exchange(): bitbang_swd_exchange
Debug: 266 50 bitbang.c:484 bitbang_swd_read_reg(): JUNK DP read reg 0 = ffffffff
Debug: 267 50 bitbang.c:507 bitbang_swd_read_reg(): No valid acknowledge: ack=7
Debug: 268 50 bitbang.c:568 bitbang_swd_run_queue(): bitbang_swd_run_queue
Debug: 269 50 bitbang.c:394 bitbang_swd_exchange(): bitbang_swd_exchange
Debug: 270 50 bitbang.c:575 bitbang_swd_run_queue(): SWD queue return value: 07
Debug: 271 51 bitbang.c:426 bitbang_swd_switch_seq(): bitbang_swd_switch_seq
Debug: 272 51 bitbang.c:434 bitbang_swd_switch_seq(): JTAG-to-SWD
Debug: 273 51 bitbang.c:394 bitbang_swd_exchange(): bitbang_swd_exchange
Debug: 274 51 bitbang.c:457 bitbang_swd_read_reg(): bitbang_swd_read_reg
Debug: 275 51 bitbang.c:394 bitbang_swd_exchange(): bitbang_swd_exchange
Debug: 276 51 bitbang.c:394 bitbang_swd_exchange(): bitbang_swd_exchange
Debug: 277 52 bitbang.c:484 bitbang_swd_read_reg(): JUNK DP read reg 0 = ffffffff
Debug: 278 52 bitbang.c:507 bitbang_swd_read_reg(): No valid acknowledge: ack=7
Debug: 279 52 bitbang.c:568 bitbang_swd_run_queue(): bitbang_swd_run_queue
Debug: 280 52 bitbang.c:394 bitbang_swd_exchange(): bitbang_swd_exchange
Debug: 281 52 bitbang.c:575 bitbang_swd_run_queue(): SWD queue return value: 07
Debug: 282 53 bitbang.c:426 bitbang_swd_switch_seq(): bitbang_swd_switch_seq
Debug: 283 53 bitbang.c:434 bitbang_swd_switch_seq(): JTAG-to-SWD
Debug: 284 53 bitbang.c:394 bitbang_swd_exchange(): bitbang_swd_exchange
Debug: 285 53 bitbang.c:457 bitbang_swd_read_reg(): bitbang_swd_read_reg
Debug: 286 53 bitbang.c:394 bitbang_swd_exchange(): bitbang_swd_exchange
Debug: 287 54 bitbang.c:394 bitbang_swd_exchange(): bitbang_swd_exchange
Debug: 288 54 bitbang.c:484 bitbang_swd_read_reg(): JUNK DP read reg 0 = ffffffff
Debug: 289 54 bitbang.c:507 bitbang_swd_read_reg(): No valid acknowledge: ack=7
Debug: 290 54 bitbang.c:568 bitbang_swd_run_queue(): bitbang_swd_run_queue
Debug: 291 54 bitbang.c:394 bitbang_swd_exchange(): bitbang_swd_exchange
Debug: 292 54 bitbang.c:575 bitbang_swd_run_queue(): SWD queue return value: 07
Debug: 293 55 bitbang.c:426 bitbang_swd_switch_seq(): bitbang_swd_switch_seq
Debug: 294 55 bitbang.c:434 bitbang_swd_switch_seq(): JTAG-to-SWD
Debug: 295 55 bitbang.c:394 bitbang_swd_exchange(): bitbang_swd_exchange
Debug: 296 56 bitbang.c:457 bitbang_swd_read_reg(): bitbang_swd_read_reg
Debug: 297 56 bitbang.c:394 bitbang_swd_exchange(): bitbang_swd_exchange
Debug: 298 56 bitbang.c:394 bitbang_swd_exchange(): bitbang_swd_exchange
Debug: 299 56 bitbang.c:484 bitbang_swd_read_reg(): JUNK DP read reg 0 = ffffffff
Debug: 300 56 bitbang.c:507 bitbang_swd_read_reg(): No valid acknowledge: ack=7
Debug: 301 56 bitbang.c:568 bitbang_swd_run_queue(): bitbang_swd_run_queue
Debug: 302 56 bitbang.c:394 bitbang_swd_exchange(): bitbang_swd_exchange
Debug: 303 56 bitbang.c:575 bitbang_swd_run_queue(): SWD queue return value: 07
Debug: 304 57 bitbang.c:426 bitbang_swd_switch_seq(): bitbang_swd_switch_seq
Debug: 305 57 bitbang.c:434 bitbang_swd_switch_seq(): JTAG-to-SWD
Debug: 306 57 bitbang.c:394 bitbang_swd_exchange(): bitbang_swd_exchange
Debug: 307 58 bitbang.c:457 bitbang_swd_read_reg(): bitbang_swd_read_reg
Debug: 308 58 bitbang.c:394 bitbang_swd_exchange(): bitbang_swd_exchange
Debug: 309 58 bitbang.c:394 bitbang_swd_exchange(): bitbang_swd_exchange
Debug: 310 58 bitbang.c:484 bitbang_swd_read_reg(): JUNK DP read reg 0 = ffffffff
Debug: 311 58 bitbang.c:507 bitbang_swd_read_reg(): No valid acknowledge: ack=7
Debug: 312 58 bitbang.c:568 bitbang_swd_run_queue(): bitbang_swd_run_queue
Debug: 313 58 bitbang.c:394 bitbang_swd_exchange(): bitbang_swd_exchange
Debug: 314 58 bitbang.c:575 bitbang_swd_run_queue(): SWD queue return value: 07
Debug: 315 59 bitbang.c:426 bitbang_swd_switch_seq(): bitbang_swd_switch_seq
Debug: 316 59 bitbang.c:434 bitbang_swd_switch_seq(): JTAG-to-SWD
Debug: 317 59 bitbang.c:394 bitbang_swd_exchange(): bitbang_swd_exchange
Debug: 318 59 bitbang.c:457 bitbang_swd_read_reg(): bitbang_swd_read_reg
Debug: 319 59 bitbang.c:394 bitbang_swd_exchange(): bitbang_swd_exchange
Debug: 320 60 bitbang.c:394 bitbang_swd_exchange(): bitbang_swd_exchange
Debug: 321 60 bitbang.c:484 bitbang_swd_read_reg(): JUNK DP read reg 0 = ffffffff
Debug: 322 60 bitbang.c:507 bitbang_swd_read_reg(): No valid acknowledge: ack=7
Debug: 323 60 bitbang.c:568 bitbang_swd_run_queue(): bitbang_swd_run_queue
Debug: 324 60 bitbang.c:394 bitbang_swd_exchange(): bitbang_swd_exchange
Debug: 325 60 bitbang.c:575 bitbang_swd_run_queue(): SWD queue return value: 07
Debug: 326 61 bitbang.c:426 bitbang_swd_switch_seq(): bitbang_swd_switch_seq
Debug: 327 61 bitbang.c:434 bitbang_swd_switch_seq(): JTAG-to-SWD
Debug: 328 61 bitbang.c:394 bitbang_swd_exchange(): bitbang_swd_exchange
Debug: 329 61 bitbang.c:457 bitbang_swd_read_reg(): bitbang_swd_read_reg
Debug: 330 61 bitbang.c:394 bitbang_swd_exchange(): bitbang_swd_exchange
Debug: 331 61 bitbang.c:394 bitbang_swd_exchange(): bitbang_swd_exchange
Debug: 332 62 bitbang.c:484 bitbang_swd_read_reg(): JUNK DP read reg 0 = ffffffff
Debug: 333 62 bitbang.c:507 bitbang_swd_read_reg(): No valid acknowledge: ack=7
Debug: 334 62 bitbang.c:568 bitbang_swd_run_queue(): bitbang_swd_run_queue
Debug: 335 62 bitbang.c:394 bitbang_swd_exchange(): bitbang_swd_exchange
